# Total Phase Data Center(tm) v5.00
# (c) 2005-2010 Total Phase, Inc.
# www.totalphase.com
#
# 
#
# Level,Index,m:s.ms.us,Dur,Len,Err,Record,Data
0,0,0:00.000.000,,,,Capture started,[12/13/10 22:35:28]
0,1,0:00.000.102,314.470.400 ms,0 B,TM,Transaction,
1,2,0:00.000.102,314.470.400 ms,0 B,TM,   MOSI,
1,3,0:00.000.102,314.470.400 ms,0 B,TM,   MISO,
0,4,0:03.093.190,10.456.800 ms,1 B,MP1,Transaction,0000
1,5,0:03.093.190,10.456.800 ms,1 B,MP1,   MOSI,00
1,6,0:03.093.190,10.456.800 ms,1 B,MP1,   MISO,00
0,7,0:03.961.465,256.900 us,5 B,,Transaction,01FF 4241 005A 00FF 00FF
1,8,0:03.961.465,256.900 us,5 B,,   MOSI,01 42 00 00 00
1,9,0:03.961.465,256.900 us,5 B,,   MISO,FF 41 5A FF FF
0,10,0:04.044.646,256.300 us,5 B,,Transaction,01FF 4241 005A 00FF 00FF
1,11,0:04.044.646,256.300 us,5 B,,   MOSI,01 42 00 00 00
1,12,0:04.044.646,256.300 us,5 B,,   MISO,FF 41 5A FF FF
0,13,0:04.061.328,256.900 us,5 B,,Transaction,01FF 4241 005A 00FF 00FF
1,14,0:04.061.328,256.900 us,5 B,,   MOSI,01 42 00 00 00
1,15,0:04.061.328,256.900 us,5 B,,   MISO,FF 41 5A FF FF
0,16,0:04.078.012,256.600 us,5 B,,Transaction,01FF 4341 005A 01FF 00FF
1,17,0:04.078.012,256.600 us,5 B,,   MOSI,01 43 00 01 00
1,18,0:04.078.012,256.600 us,5 B,,   MISO,FF 41 5A FF FF
0,19,0:04.094.705,454.300 us,9 B,,Transaction,01FF 45F3 005A 5A03 5A02 5A00 5A02 5A01 5A00
1,20,0:04.094.705,454.300 us,9 B,,   MOSI,01 45 00 5A 5A 5A 5A 5A 5A
1,21,0:04.094.705,454.300 us,9 B,,   MISO,FF F3 5A 03 02 00 02 01 00
0,22,0:04.111.390,454.000 us,9 B,,Transaction,01FF 46F3 005A 0000 5A00 5A01 5A02 5A00 5A0F
1,23,0:04.111.390,454.000 us,9 B,,   MOSI,01 46 00 00 5A 5A 5A 5A 5A
1,24,0:04.111.390,454.000 us,9 B,,   MISO,FF F3 5A 00 00 01 02 00 0F
0,25,0:04.128.073,454.900 us,9 B,,Transaction,01FF 46F3 005A 0100 5A00 5A01 5A01 5A01 5A0F
1,26,0:04.128.073,454.900 us,9 B,,   MOSI,01 46 00 01 5A 5A 5A 5A 5A
1,27,0:04.128.073,454.900 us,9 B,,   MISO,FF F3 5A 00 00 01 01 01 0F
0,28,0:04.144.765,453.500 us,9 B,,Transaction,01FF 47F3 005A 0000 5A00 5A02 5A00 5A01 5A00
1,29,0:04.144.765,453.500 us,9 B,,   MOSI,01 47 00 00 5A 5A 5A 5A 5A
1,30,0:04.144.765,453.500 us,9 B,,   MISO,FF F3 5A 00 00 02 00 01 00
0,31,0:04.161.443,453.300 us,9 B,,Transaction,01FF 4CF3 005A 0000 5A00 5A00 5A04 5A00 5A00
1,32,0:04.161.443,453.300 us,9 B,,   MOSI,01 4C 00 00 5A 5A 5A 5A 5A
1,33,0:04.161.443,453.300 us,9 B,,   MISO,FF F3 5A 00 00 00 04 00 00
0,34,0:04.178.125,453.800 us,9 B,,Transaction,01FF 4CF3 005A 0100 5A00 5A00 5A07 5A00 5A00
1,35,0:04.178.125,453.800 us,9 B,,   MOSI,01 4C 00 01 5A 5A 5A 5A 5A
1,36,0:04.178.125,453.800 us,9 B,,   MISO,FF F3 5A 00 00 00 07 00 00
0,37,0:04.194.815,453.600 us,9 B,,Transaction,01FF 4DF3 005A FFFF FFFF FFFF FFFF FFFF FFFF
1,38,0:04.194.815,453.600 us,9 B,,   MOSI,01 4D 00 FF FF FF FF FF FF
1,39,0:04.194.815,453.600 us,9 B,,   MISO,FF F3 5A FF FF FF FF FF FF
0,40,0:04.211.499,453.900 us,9 B,,Transaction,01FF 41F3 005A 5A00 5A00 5A00 5A00 5A00 5A00
1,41,0:04.211.499,453.900 us,9 B,,   MOSI,01 41 00 5A 5A 5A 5A 5A 5A
1,42,0:04.211.499,453.900 us,9 B,,   MISO,FF F3 5A 00 00 00 00 00 00
0,43,0:04.228.186,455.000 us,9 B,,Transaction,01FF 43F3 005A 0000 5A00 5A00 5A00 5A00 5A00
1,44,0:04.228.186,455.000 us,9 B,,   MOSI,01 43 00 00 5A 5A 5A 5A 5A
1,45,0:04.228.186,455.000 us,9 B,,   MISO,FF F3 5A 00 00 00 00 00 00
0,46,0:04.244.866,255.500 us,5 B,,Transaction,01FF 4241 005A 00FF 00FF
1,47,0:04.244.866,255.500 us,5 B,,   MOSI,01 42 00 00 00
1,48,0:04.244.866,255.500 us,5 B,,   MISO,FF 41 5A FF FF
0,49,0:04.261.552,256.700 us,5 B,,Transaction,01FF 4241 005A 00FF 00FF
1,50,0:04.261.552,256.700 us,5 B,,   MOSI,01 42 00 00 00
1,51,0:04.261.552,256.700 us,5 B,,   MISO,FF 41 5A FF FF
0,52,0:04.278.231,255.300 us,5 B,,Transaction,01FF 4241 005A 00FF 00FF
1,53,0:04.278.231,255.300 us,5 B,,   MOSI,01 42 00 00 00
1,54,0:04.278.231,255.300 us,5 B,,   MISO,FF 41 5A FF FF
0,55,0:04.294.915,256.900 us,5 B,,Transaction,01FF 4241 005A 00FF 00FF
1,56,0:04.294.915,256.900 us,5 B,,   MOSI,01 42 00 00 00
1,57,0:04.294.915,256.900 us,5 B,,   MISO,FF 41 5A FF FF
0,58,0:04.311.599,256.500 us,5 B,,Transaction,01FF 4241 005A 00FF 00FF
1,59,0:04.311.599,256.500 us,5 B,,   MOSI,01 42 00 00 00
1,60,0:04.311.599,256.500 us,5 B,,   MISO,FF 41 5A FF FF
0,61,0:04.328.295,255.500 us,5 B,,Transaction,01FF 4241 005A 00FF 00FF
1,62,0:04.328.295,255.500 us,5 B,,   MOSI,01 42 00 00 00
1,63,0:04.328.295,255.500 us,5 B,,   MISO,FF 41 5A FF FF
0,64,0:04.344.977,256.000 us,5 B,,Transaction,01FF 4241 005A 00FF 00FF
1,65,0:04.344.977,256.000 us,5 B,,   MOSI,01 42 00 00 00
1,66,0:04.344.977,256.000 us,5 B,,   MISO,FF 41 5A FF FF
0,67,0:04.361.665,257.300 us,5 B,,Transaction,01FF 4241 005A 00FF 00FF
1,68,0:04.361.665,257.300 us,5 B,,   MOSI,01 42 00 00 00
1,69,0:04.361.665,257.300 us,5 B,,   MISO,FF 41 5A FF FF
0,70,0:04.378.345,256.300 us,5 B,,Transaction,01FF 4241 005A 00FF 00FF
1,71,0:04.378.345,256.300 us,5 B,,   MOSI,01 42 00 00 00
1,72,0:04.378.345,256.300 us,5 B,,   MISO,FF 41 5A FF FF
0,73,0:04.395.037,256.400 us,5 B,,Transaction,01FF 4241 005A 00FF 00FF
1,74,0:04.395.037,256.400 us,5 B,,   MOSI,01 42 00 00 00
1,75,0:04.395.037,256.400 us,5 B,,   MISO,FF 41 5A FF FF
0,76,0:04.411.718,255.400 us,5 B,,Transaction,01FF 4241 005A 00FF 00FF
1,77,0:04.411.718,255.400 us,5 B,,   MOSI,01 42 00 00 00
1,78,0:04.411.718,255.400 us,5 B,,   MISO,FF 41 5A FF FF
0,79,0:04.428.422,257.000 us,5 B,,Transaction,01FF 4241 005A 00FF 00FF
1,80,0:04.428.422,257.000 us,5 B,,   MOSI,01 42 00 00 00
1,81,0:04.428.422,257.000 us,5 B,,   MISO,FF 41 5A FF FF
0,82,0:04.445.088,256.900 us,5 B,,Transaction,01FF 4241 005A 00FF 00FF
1,83,0:04.445.088,256.900 us,5 B,,   MOSI,01 42 00 00 00
1,84,0:04.445.088,256.900 us,5 B,,   MISO,FF 41 5A FF FF
0,85,0:04.461.776,256.400 us,5 B,,Transaction,01FF 4241 005A 00FF 00FF
1,86,0:04.461.776,256.400 us,5 B,,   MOSI,01 42 00 00 00
1,87,0:04.461.776,256.400 us,5 B,,   MISO,FF 41 5A FF FF
0,88,0:04.478.456,256.400 us,5 B,,Transaction,01FF 4241 005A 00FF 00FF
1,89,0:04.478.456,256.400 us,5 B,,   MOSI,01 42 00 00 00
1,90,0:04.478.456,256.400 us,5 B,,   MISO,FF 41 5A FF FF
0,91,0:04.495.144,256.300 us,5 B,,Transaction,01FF 4241 005A 00FF 00FF
1,92,0:04.495.144,256.300 us,5 B,,   MOSI,01 42 00 00 00
1,93,0:04.495.144,256.300 us,5 B,,   MISO,FF 41 5A FF FF
0,94,0:04.511.823,255.400 us,5 B,,Transaction,01FF 4241 005A 00FF 00FF
1,95,0:04.511.823,255.400 us,5 B,,   MOSI,01 42 00 00 00
1,96,0:04.511.823,255.400 us,5 B,,   MISO,FF 41 5A FF FF
0,97,0:04.528.512,256.700 us,5 B,,Transaction,01FF 4241 005A 00FF 00FF
1,98,0:04.528.512,256.700 us,5 B,,   MOSI,01 42 00 00 00
1,99,0:04.528.512,256.700 us,5 B,,   MISO,FF 41 5A FF FF
0,100,0:04.545.199,255.900 us,5 B,,Transaction,01FF 4241 005A 00FF 00FF
1,101,0:04.545.199,255.900 us,5 B,,   MOSI,01 42 00 00 00
1,102,0:04.545.199,255.900 us,5 B,,   MISO,FF 41 5A FF FF
0,103,0:04.561.885,255.500 us,5 B,,Transaction,01FF 4241 005A 00FF 00FF
1,104,0:04.561.885,255.500 us,5 B,,   MOSI,01 42 00 00 00
1,105,0:04.561.885,255.500 us,5 B,,   MISO,FF 41 5A FF FF
0,106,0:04.578.569,255.400 us,5 B,,Transaction,01FF 4241 005A 00FF 00FF
1,107,0:04.578.569,255.400 us,5 B,,   MOSI,01 42 00 00 00
1,108,0:04.578.569,255.400 us,5 B,,   MISO,FF 41 5A FF FF
0,109,0:04.595.253,256.400 us,5 B,,Transaction,01FF 4241 005A 00FF 00FF
1,110,0:04.595.253,256.400 us,5 B,,   MOSI,01 42 00 00 00
1,111,0:04.595.253,256.400 us,5 B,,   MISO,FF 41 5A FF FF
0,112,0:04.611.938,256.700 us,5 B,,Transaction,01FF 4241 005A 00FF 00FF
1,113,0:04.611.938,256.700 us,5 B,,   MOSI,01 42 00 00 00
1,114,0:04.611.938,256.700 us,5 B,,   MISO,FF 41 5A FF FF
0,115,0:04.628.622,256.000 us,5 B,,Transaction,01FF 4241 005A 00FF 00FF
1,116,0:04.628.622,256.000 us,5 B,,   MOSI,01 42 00 00 00
1,117,0:04.628.622,256.000 us,5 B,,   MISO,FF 41 5A FF FF
0,118,0:04.645.309,255.600 us,5 B,,Transaction,01FF 4241 005A 00FF 00FF
1,119,0:04.645.309,255.600 us,5 B,,   MOSI,01 42 00 00 00
1,120,0:04.645.309,255.600 us,5 B,,   MISO,FF 41 5A FF FF
0,121,0:04.661.999,255.300 us,5 B,,Transaction,01FF 4241 005A 00FF 00FF
1,122,0:04.661.999,255.300 us,5 B,,   MOSI,01 42 00 00 00
1,123,0:04.661.999,255.300 us,5 B,,   MISO,FF 41 5A FF FF
0,124,0:04.678.677,256.200 us,5 B,,Transaction,01FF 4241 005A 00FF 00FF
1,125,0:04.678.677,256.200 us,5 B,,   MOSI,01 42 00 00 00
1,126,0:04.678.677,256.200 us,5 B,,   MISO,FF 41 5A FF FF
0,127,0:04.695.433,256.000 us,5 B,,Transaction,01FF 4241 005A 00FF 00FF
1,128,0:04.695.433,256.000 us,5 B,,   MOSI,01 42 00 00 00
1,129,0:04.695.433,256.000 us,5 B,,   MISO,FF 41 5A FF FF
0,130,0:04.712.058,257.000 us,5 B,,Transaction,01FF 4241 005A 00FF 00FF
1,131,0:04.712.058,257.000 us,5 B,,   MOSI,01 42 00 00 00
1,132,0:04.712.058,257.000 us,5 B,,   MISO,FF 41 5A FF FF
0,133,0:04.728.732,256.100 us,5 B,,Transaction,01FF 4241 005A 00FF 00FF
1,134,0:04.728.732,256.100 us,5 B,,   MOSI,01 42 00 00 00
1,135,0:04.728.732,256.100 us,5 B,,   MISO,FF 41 5A FF FF
0,136,0:04.745.423,256.600 us,5 B,,Transaction,01FF 4241 005A 00FF 00FF
1,137,0:04.745.423,256.600 us,5 B,,   MOSI,01 42 00 00 00
1,138,0:04.745.423,256.600 us,5 B,,   MISO,FF 41 5A FF FF
0,139,0:04.762.106,257.100 us,5 B,,Transaction,01FF 4241 005A 00FF 00FF
1,140,0:04.762.106,257.100 us,5 B,,   MOSI,01 42 00 00 00
1,141,0:04.762.106,257.100 us,5 B,,   MISO,FF 41 5A FF FF
0,142,0:04.778.793,257.100 us,5 B,,Transaction,01FF 4241 005A 00FF 00FF
1,143,0:04.778.793,257.100 us,5 B,,   MOSI,01 42 00 00 00
1,144,0:04.778.793,257.100 us,5 B,,   MISO,FF 41 5A FF FF
0,145,0:04.795.476,255.400 us,5 B,,Transaction,01FF 4241 005A 00FF 00FF
1,146,0:04.795.476,255.400 us,5 B,,   MOSI,01 42 00 00 00
1,147,0:04.795.476,255.400 us,5 B,,   MISO,FF 41 5A FF FF
0,148,0:04.812.161,256.400 us,5 B,,Transaction,01FF 4241 005A 00FF 00FF
1,149,0:04.812.161,256.400 us,5 B,,   MOSI,01 42 00 00 00
1,150,0:04.812.161,256.400 us,5 B,,   MISO,FF 41 5A FF FF
0,151,0:04.828.843,256.300 us,5 B,,Transaction,01FF 4241 005A 00FF 00FF
1,152,0:04.828.843,256.300 us,5 B,,   MOSI,01 42 00 00 00
1,153,0:04.828.843,256.300 us,5 B,,   MISO,FF 41 5A FF FF
0,154,0:04.845.532,255.700 us,5 B,,Transaction,01FF 4241 005A 00FF 00FF
1,155,0:04.845.532,255.700 us,5 B,,   MOSI,01 42 00 00 00
1,156,0:04.845.532,255.700 us,5 B,,   MISO,FF 41 5A FF FF
0,157,0:04.862.216,255.300 us,5 B,,Transaction,01FF 4241 005A 00FF 00FF
1,158,0:04.862.216,255.300 us,5 B,,   MOSI,01 42 00 00 00
1,159,0:04.862.216,255.300 us,5 B,,   MISO,FF 41 5A FF FF
0,160,0:04.878.901,256.200 us,5 B,,Transaction,01FF 4241 005A 00FF 00FF
1,161,0:04.878.901,256.200 us,5 B,,   MOSI,01 42 00 00 00
1,162,0:04.878.901,256.200 us,5 B,,   MISO,FF 41 5A FF FF
0,163,0:04.895.588,257.200 us,5 B,,Transaction,01FF 4241 005A 00FF 00FF
1,164,0:04.895.588,257.200 us,5 B,,   MOSI,01 42 00 00 00
1,165,0:04.895.588,257.200 us,5 B,,   MISO,FF 41 5A FF FF
0,166,0:04.912.274,256.600 us,5 B,,Transaction,01FF 4241 005A 00FF 00FF
1,167,0:04.912.274,256.600 us,5 B,,   MOSI,01 42 00 00 00
1,168,0:04.912.274,256.600 us,5 B,,   MISO,FF 41 5A FF FF
0,169,0:04.928.953,257.100 us,5 B,,Transaction,01FF 4241 005A 00FF 00FF
1,170,0:04.928.953,257.100 us,5 B,,   MOSI,01 42 00 00 00
1,171,0:04.928.953,257.100 us,5 B,,   MISO,FF 41 5A FF FF
0,172,0:04.945.640,255.500 us,5 B,,Transaction,01FF 4241 005A 00FF 00FF
1,173,0:04.945.640,255.500 us,5 B,,   MOSI,01 42 00 00 00
1,174,0:04.945.640,255.500 us,5 B,,   MISO,FF 41 5A FF FF
0,175,0:04.962.354,256.500 us,5 B,,Transaction,01FF 4241 005A 00FF 00FF
1,176,0:04.962.354,256.500 us,5 B,,   MOSI,01 42 00 00 00
1,177,0:04.962.354,256.500 us,5 B,,   MISO,FF 41 5A FF FF
0,178,0:04.979.018,256.800 us,5 B,,Transaction,01FF 4241 005A 00FF 00FF
1,179,0:04.979.018,256.800 us,5 B,,   MOSI,01 42 00 00 00
1,180,0:04.979.018,256.800 us,5 B,,   MISO,FF 41 5A FF FF
0,181,0:04.995.699,255.500 us,5 B,,Transaction,01FF 4241 005A 00FF 00FF
1,182,0:04.995.699,255.500 us,5 B,,   MOSI,01 42 00 00 00
1,183,0:04.995.699,255.500 us,5 B,,   MISO,FF 41 5A FF FF
0,184,0:05.012.383,256.900 us,5 B,,Transaction,01FF 4241 005A 00FF 00FF
1,185,0:05.012.383,256.900 us,5 B,,   MOSI,01 42 00 00 00
1,186,0:05.012.383,256.900 us,5 B,,   MISO,FF 41 5A FF FF
0,187,0:05.029.071,257.100 us,5 B,,Transaction,01FF 4241 005A 00FF 00FF
1,188,0:05.029.071,257.100 us,5 B,,   MOSI,01 42 00 00 00
1,189,0:05.029.071,257.100 us,5 B,,   MISO,FF 41 5A FF FF
0,190,0:05.045.755,256.500 us,5 B,,Transaction,01FF 4241 005A 00FF 00FF
1,191,0:05.045.755,256.500 us,5 B,,   MOSI,01 42 00 00 00
1,192,0:05.045.755,256.500 us,5 B,,   MISO,FF 41 5A FF FF
0,193,0:05.062.441,255.800 us,5 B,,Transaction,01FF 4241 005A 00FF 00FF
1,194,0:05.062.441,255.800 us,5 B,,   MOSI,01 42 00 00 00
1,195,0:05.062.441,255.800 us,5 B,,   MISO,FF 41 5A FF FF
0,196,0:05.079.147,257.300 us,5 B,,Transaction,01FF 4241 005A 00FF 00FF
1,197,0:05.079.147,257.300 us,5 B,,   MOSI,01 42 00 00 00
1,198,0:05.079.147,257.300 us,5 B,,   MISO,FF 41 5A FF FF
0,199,0:05.095.812,256.600 us,5 B,,Transaction,01FF 4241 005A 00FF 00FF
1,200,0:05.095.812,256.600 us,5 B,,   MOSI,01 42 00 00 00
1,201,0:05.095.812,256.600 us,5 B,,   MISO,FF 41 5A FF FF
0,202,0:05.112.494,256.400 us,5 B,,Transaction,01FF 4241 005A 00FF 00FF
1,203,0:05.112.494,256.400 us,5 B,,   MOSI,01 42 00 00 00
1,204,0:05.112.494,256.400 us,5 B,,   MISO,FF 41 5A FF FF
0,205,0:05.129.180,256.800 us,5 B,,Transaction,01FF 4241 005A 00FF 00FF
1,206,0:05.129.180,256.800 us,5 B,,   MOSI,01 42 00 00 00
1,207,0:05.129.180,256.800 us,5 B,,   MISO,FF 41 5A FF FF
0,208,0:05.145.872,256.700 us,5 B,,Transaction,01FF 4241 005A 00FF 00FF
1,209,0:05.145.872,256.700 us,5 B,,   MOSI,01 42 00 00 00
1,210,0:05.145.872,256.700 us,5 B,,   MISO,FF 41 5A FF FF
0,211,0:05.162.551,257.200 us,5 B,,Transaction,01FF 4241 005A 00FF 00FF
1,212,0:05.162.551,257.200 us,5 B,,   MOSI,01 42 00 00 00
1,213,0:05.162.551,257.200 us,5 B,,   MISO,FF 41 5A FF FF
0,214,0:05.179.234,255.900 us,5 B,,Transaction,01FF 4241 005A 00FF 00FF
1,215,0:05.179.234,255.900 us,5 B,,   MOSI,01 42 00 00 00
1,216,0:05.179.234,255.900 us,5 B,,   MISO,FF 41 5A FF FF
0,217,0:05.195.921,256.100 us,5 B,,Transaction,01FF 4241 005A 00FF 00FF
1,218,0:05.195.921,256.100 us,5 B,,   MOSI,01 42 00 00 00
1,219,0:05.195.921,256.100 us,5 B,,   MISO,FF 41 5A FF FF
0,220,0:05.212.608,256.700 us,5 B,,Transaction,01FF 4241 005A 00FF 00FF
1,221,0:05.212.608,256.700 us,5 B,,   MOSI,01 42 00 00 00
1,222,0:05.212.608,256.700 us,5 B,,   MISO,FF 41 5A FF FF
0,223,0:05.229.291,256.300 us,5 B,,Transaction,01FF 4241 005A 00FF 00FF
1,224,0:05.229.291,256.300 us,5 B,,   MOSI,01 42 00 00 00
1,225,0:05.229.291,256.300 us,5 B,,   MISO,FF 41 5A FF FF
0,226,0:05.245.980,257.000 us,5 B,,Transaction,01FF 4241 005A 00FF 00FF
1,227,0:05.245.980,257.000 us,5 B,,   MOSI,01 42 00 00 00
1,228,0:05.245.980,257.000 us,5 B,,   MISO,FF 41 5A FF FF
0,229,0:05.262.662,255.500 us,5 B,,Transaction,01FF 4241 005A 00FF 00FF
1,230,0:05.262.662,255.500 us,5 B,,   MOSI,01 42 00 00 00
1,231,0:05.262.662,255.500 us,5 B,,   MISO,FF 41 5A FF FF
0,232,0:05.279.346,255.500 us,5 B,,Transaction,01FF 4241 005A 00FF 00FF
1,233,0:05.279.346,255.500 us,5 B,,   MOSI,01 42 00 00 00
1,234,0:05.279.346,255.500 us,5 B,,   MISO,FF 41 5A FF FF
0,235,0:05.296.034,257.100 us,5 B,,Transaction,01FF 4241 005A 00FF 00FF
1,236,0:05.296.034,257.100 us,5 B,,   MOSI,01 42 00 00 00
1,237,0:05.296.034,257.100 us,5 B,,   MISO,FF 41 5A FF FF
0,238,0:05.312.718,256.700 us,5 B,,Transaction,01FF 4241 005A 00FF 00FF
1,239,0:05.312.718,256.700 us,5 B,,   MOSI,01 42 00 00 00
1,240,0:05.312.718,256.700 us,5 B,,   MISO,FF 41 5A FF FF
0,241,0:05.329.405,256.300 us,5 B,,Transaction,01FF 4241 005A 00FF 00FF
1,242,0:05.329.405,256.300 us,5 B,,   MOSI,01 42 00 00 00
1,243,0:05.329.405,256.300 us,5 B,,   MISO,FF 41 5A FF FF
0,244,0:05.346.088,256.900 us,5 B,,Transaction,01FF 4241 005A 00FF 00FF
1,245,0:05.346.088,256.900 us,5 B,,   MOSI,01 42 00 00 00
1,246,0:05.346.088,256.900 us,5 B,,   MISO,FF 41 5A FF FF
0,247,0:05.362.776,255.700 us,5 B,,Transaction,01FF 4241 005A 00FF 00FF
1,248,0:05.362.776,255.700 us,5 B,,   MOSI,01 42 00 00 00
1,249,0:05.362.776,255.700 us,5 B,,   MISO,FF 41 5A FF FF
0,250,0:05.379.457,256.000 us,5 B,,Transaction,01FF 4241 005A 00FF 00FF
1,251,0:05.379.457,256.000 us,5 B,,   MOSI,01 42 00 00 00
1,252,0:05.379.457,256.000 us,5 B,,   MISO,FF 41 5A FF FF
0,253,0:05.396.146,255.800 us,5 B,,Transaction,01FF 4241 005A 00FF 00FF
1,254,0:05.396.146,255.800 us,5 B,,   MOSI,01 42 00 00 00
1,255,0:05.396.146,255.800 us,5 B,,   MISO,FF 41 5A FF FF
0,256,0:05.412.825,256.400 us,5 B,,Transaction,01FF 4241 005A 00FF 00FF
1,257,0:05.412.825,256.400 us,5 B,,   MOSI,01 42 00 00 00
1,258,0:05.412.825,256.400 us,5 B,,   MISO,FF 41 5A FF FF
0,259,0:05.429.515,255.700 us,5 B,,Transaction,01FF 4241 005A 00FF 00FF
1,260,0:05.429.515,255.700 us,5 B,,   MOSI,01 42 00 00 00
1,261,0:05.429.515,255.700 us,5 B,,   MISO,FF 41 5A FF FF
0,262,0:05.446.197,255.900 us,5 B,,Transaction,01FF 4241 005A 00FF 00FF
1,263,0:05.446.197,255.900 us,5 B,,   MOSI,01 42 00 00 00
1,264,0:05.446.197,255.900 us,5 B,,   MISO,FF 41 5A FF FF
0,265,0:05.462.886,256.400 us,5 B,,Transaction,01FF 4241 005A 00FF 00FF
1,266,0:05.462.886,256.400 us,5 B,,   MOSI,01 42 00 00 00
1,267,0:05.462.886,256.400 us,5 B,,   MISO,FF 41 5A FF FF
0,268,0:05.479.569,256.700 us,5 B,,Transaction,01FF 4241 005A 00FF 00FF
1,269,0:05.479.569,256.700 us,5 B,,   MOSI,01 42 00 00 00
1,270,0:05.479.569,256.700 us,5 B,,   MISO,FF 41 5A FF FF
0,271,0:05.496.256,257.000 us,5 B,,Transaction,01FF 4241 005A 00FF 00FF
1,272,0:05.496.256,257.000 us,5 B,,   MOSI,01 42 00 00 00
1,273,0:05.496.256,257.000 us,5 B,,   MISO,FF 41 5A FF FF
0,274,0:05.512.939,256.800 us,5 B,,Transaction,01FF 4241 005A 00FF 00FF
1,275,0:05.512.939,256.800 us,5 B,,   MOSI,01 42 00 00 00
1,276,0:05.512.939,256.800 us,5 B,,   MISO,FF 41 5A FF FF
0,277,0:05.529.625,256.100 us,5 B,,Transaction,01FF 4241 005A 00FF 00FF
1,278,0:05.529.625,256.100 us,5 B,,   MOSI,01 42 00 00 00
1,279,0:05.529.625,256.100 us,5 B,,   MISO,FF 41 5A FF FF
0,280,0:05.546.310,256.500 us,5 B,,Transaction,01FF 4241 005A 00FF 00FF
1,281,0:05.546.310,256.500 us,5 B,,   MOSI,01 42 00 00 00
1,282,0:05.546.310,256.500 us,5 B,,   MISO,FF 41 5A FF FF
0,283,0:05.562.997,255.600 us,5 B,,Transaction,01FF 4241 005A 00FF 00FF
1,284,0:05.562.997,255.600 us,5 B,,   MOSI,01 42 00 00 00
1,285,0:05.562.997,255.600 us,5 B,,   MISO,FF 41 5A FF FF
0,286,0:05.579.679,256.200 us,5 B,,Transaction,01FF 4241 005A 00FF 00FF
1,287,0:05.579.679,256.200 us,5 B,,   MOSI,01 42 00 00 00
1,288,0:05.579.679,256.200 us,5 B,,   MISO,FF 41 5A FF FF
0,289,0:05.596.379,256.000 us,5 B,,Transaction,01FF 4241 005A 00FF 00FF
1,290,0:05.596.379,256.000 us,5 B,,   MOSI,01 42 00 00 00
1,291,0:05.596.379,256.000 us,5 B,,   MISO,FF 41 5A FF FF
0,292,0:05.613.045,255.800 us,5 B,,Transaction,01FF 4241 005A 00FF 00FF
1,293,0:05.613.045,255.800 us,5 B,,   MOSI,01 42 00 00 00
1,294,0:05.613.045,255.800 us,5 B,,   MISO,FF 41 5A FF FF
0,295,0:05.629.754,256.300 us,5 B,,Transaction,01FF 4241 005A 00FF 00FF
1,296,0:05.629.754,256.300 us,5 B,,   MOSI,01 42 00 00 00
1,297,0:05.629.754,256.300 us,5 B,,   MISO,FF 41 5A FF FF
0,298,0:05.646.418,256.100 us,5 B,,Transaction,01FF 4241 005A 00FF 00FF
1,299,0:05.646.418,256.100 us,5 B,,   MOSI,01 42 00 00 00
1,300,0:05.646.418,256.100 us,5 B,,   MISO,FF 41 5A FF FF
0,301,0:05.663.105,256.600 us,5 B,,Transaction,01FF 4241 005A 00FF 00FF
1,302,0:05.663.105,256.600 us,5 B,,   MOSI,01 42 00 00 00
1,303,0:05.663.105,256.600 us,5 B,,   MISO,FF 41 5A FF FF
0,304,0:05.663.105,,,,Capture stopped,[12/13/10 22:35:34]
