# Total Phase Data Center(tm) v5.00
# (c) 2005-2010 Total Phase, Inc.
# www.totalphase.com
#
# 
#
# Level,Index,m:s.ms.us,Dur,Len,Err,Record,Data
0,0,0:00.000.000,,,,Capture started,[12/13/10 22:59:13]
0,1,0:00.000.102,314.470.400 ms,0 B,TM,Transaction,
1,2,0:00.000.102,314.470.400 ms,0 B,TM,   MOSI,
1,3,0:00.000.102,314.470.400 ms,0 B,TM,   MISO,
0,4,0:03.740.977,2.480.100 ms,0 B,,Transaction,
1,5,0:03.740.977,2.480.100 ms,0 B,,   MOSI,
1,6,0:03.740.977,2.480.100 ms,0 B,,   MISO,
0,7,0:03.743.457,4.192.300 ms,0 B,,Transaction,
1,8,0:03.743.457,4.192.300 ms,0 B,,   MOSI,
1,9,0:03.743.457,4.192.300 ms,0 B,,   MISO,
0,10,0:03.747.650,2.003.500 ms,0 B,,Transaction,
1,11,0:03.747.650,2.003.500 ms,0 B,,   MOSI,
1,12,0:03.747.650,2.003.500 ms,0 B,,   MISO,
0,13,0:03.749.653,258.100 us,0 B,,Transaction,
1,14,0:03.749.653,258.100 us,0 B,,   MOSI,
1,15,0:03.749.653,258.100 us,0 B,,   MISO,
0,16,0:03.749.912,81.900 us,0 B,,Transaction,
1,17,0:03.749.912,81.900 us,0 B,,   MOSI,
1,18,0:03.749.912,81.900 us,0 B,,   MISO,
0,19,0:03.749.994,113.300 us,0 B,,Transaction,
1,20,0:03.749.994,113.300 us,0 B,,   MOSI,
1,21,0:03.749.994,113.300 us,0 B,,   MISO,
0,22,0:03.750.107,789.000 us,0 B,,Transaction,
1,23,0:03.750.107,789.000 us,0 B,,   MOSI,
1,24,0:03.750.107,789.000 us,0 B,,   MISO,
0,25,0:03.750.896,295.300 us,0 B,,Transaction,
1,26,0:03.750.896,295.300 us,0 B,,   MOSI,
1,27,0:03.750.896,295.300 us,0 B,,   MISO,
0,28,0:03.751.191,19.200 us,0 B,,Transaction,
1,29,0:03.751.191,19.200 us,0 B,,   MOSI,
1,30,0:03.751.191,19.200 us,0 B,,   MISO,
0,31,0:03.751.211,131.700 us,0 B,,Transaction,
1,32,0:03.751.211,131.700 us,0 B,,   MOSI,
1,33,0:03.751.211,131.700 us,0 B,,   MISO,
0,34,0:03.751.343,50.900 us,0 B,,Transaction,
1,35,0:03.751.343,50.900 us,0 B,,   MOSI,
1,36,0:03.751.343,50.900 us,0 B,,   MISO,
0,37,0:03.751.394,149.300 us,0 B,,Transaction,
1,38,0:03.751.394,149.300 us,0 B,,   MOSI,
1,39,0:03.751.394,149.300 us,0 B,,   MISO,
0,40,0:03.751.543,111.300 us,0 B,,Transaction,
1,41,0:03.751.543,111.300 us,0 B,,   MOSI,
1,42,0:03.751.543,111.300 us,0 B,,   MISO,
0,43,0:03.751.654,554.200 us,0 B,,Transaction,
1,44,0:03.751.654,554.200 us,0 B,,   MOSI,
1,45,0:03.751.654,554.200 us,0 B,,   MISO,
0,46,0:03.752.209,22.500 us,0 B,,Transaction,
1,47,0:03.752.209,22.500 us,0 B,,   MOSI,
1,48,0:03.752.209,22.500 us,0 B,,   MISO,
0,49,0:03.752.231,266.200 us,0 B,,Transaction,
1,50,0:03.752.231,266.200 us,0 B,,   MOSI,
1,51,0:03.752.231,266.200 us,0 B,,   MISO,
0,52,0:03.752.498,3.300 us,0 B,,Transaction,
1,53,0:03.752.498,3.300 us,0 B,,   MOSI,
1,54,0:03.752.498,3.300 us,0 B,,   MISO,
0,55,0:03.752.501,160.900 us,0 B,,Transaction,
1,56,0:03.752.501,160.900 us,0 B,,   MOSI,
1,57,0:03.752.501,160.900 us,0 B,,   MISO,
0,58,0:03.752.662,266.300 us,0 B,,Transaction,
1,59,0:03.752.662,266.300 us,0 B,,   MOSI,
1,60,0:03.752.662,266.300 us,0 B,,   MISO,
0,61,0:03.752.928,5.100 us,0 B,,Transaction,
1,62,0:03.752.928,5.100 us,0 B,,   MOSI,
1,63,0:03.752.928,5.100 us,0 B,,   MISO,
0,64,0:03.752.934,129.900 us,0 B,,Transaction,
1,65,0:03.752.934,129.900 us,0 B,,   MOSI,
1,66,0:03.752.934,129.900 us,0 B,,   MISO,
0,67,0:03.753.064,99.700 us,0 B,,Transaction,
1,68,0:03.753.064,99.700 us,0 B,,   MOSI,
1,69,0:03.753.064,99.700 us,0 B,,   MISO,
0,70,0:03.753.163,68.400 us,0 B,,Transaction,
1,71,0:03.753.163,68.400 us,0 B,,   MOSI,
1,72,0:03.753.163,68.400 us,0 B,,   MISO,
0,73,0:03.753.232,4.900 us,0 B,,Transaction,
1,74,0:03.753.232,4.900 us,0 B,,   MOSI,
1,75,0:03.753.232,4.900 us,0 B,,   MISO,
0,76,0:03.753.237,25.300 us,0 B,,Transaction,
1,77,0:03.753.237,25.300 us,0 B,,   MOSI,
1,78,0:03.753.237,25.300 us,0 B,,   MISO,
0,79,0:03.753.262,38.100 us,0 B,,Transaction,
1,80,0:03.753.262,38.100 us,0 B,,   MOSI,
1,81,0:03.753.262,38.100 us,0 B,,   MISO,
0,82,0:03.753.301,106.200 us,0 B,,Transaction,
1,83,0:03.753.301,106.200 us,0 B,,   MOSI,
1,84,0:03.753.301,106.200 us,0 B,,   MISO,
0,85,0:03.753.407,22.700 us,0 B,,Transaction,
1,86,0:03.753.407,22.700 us,0 B,,   MOSI,
1,87,0:03.753.407,22.700 us,0 B,,   MISO,
0,88,0:03.753.430,70.700 us,0 B,,Transaction,
1,89,0:03.753.430,70.700 us,0 B,,   MOSI,
1,90,0:03.753.430,70.700 us,0 B,,   MISO,
0,91,0:03.753.500,3.900 us,0 B,,Transaction,
1,92,0:03.753.500,3.900 us,0 B,,   MOSI,
1,93,0:03.753.500,3.900 us,0 B,,   MISO,
0,94,0:03.753.504,15.700 us,0 B,,Transaction,
1,95,0:03.753.504,15.700 us,0 B,,   MOSI,
1,96,0:03.753.504,15.700 us,0 B,,   MISO,
0,97,0:03.753.520,43.500 us,0 B,,Transaction,
1,98,0:03.753.520,43.500 us,0 B,,   MOSI,
1,99,0:03.753.520,43.500 us,0 B,,   MISO,
0,100,0:03.753.564,1.400 us,0 B,,Transaction,
1,101,0:03.753.564,1.400 us,0 B,,   MOSI,
1,102,0:03.753.564,1.400 us,0 B,,   MISO,
0,103,0:03.753.566,200 ns,0 B,,Transaction,
1,104,0:03.753.566,200 ns,0 B,,   MOSI,
1,105,0:03.753.566,200 ns,0 B,,   MISO,
0,106,0:03.753.566,2.400 us,0 B,,Transaction,
1,107,0:03.753.566,2.400 us,0 B,,   MOSI,
1,108,0:03.753.566,2.400 us,0 B,,   MISO,
0,109,0:03.753.569,700 ns,0 B,,Transaction,
1,110,0:03.753.569,700 ns,0 B,,   MOSI,
1,111,0:03.753.569,700 ns,0 B,,   MISO,
0,112,0:03.753.569,1.000 us,0 B,,Transaction,
1,113,0:03.753.569,1.000 us,0 B,,   MOSI,
1,114,0:03.753.569,1.000 us,0 B,,   MISO,
0,115,0:03.753.571,12.800 us,0 B,,Transaction,
1,116,0:03.753.571,12.800 us,0 B,,   MOSI,
1,117,0:03.753.571,12.800 us,0 B,,   MISO,
0,118,0:03.753.584,21.500 us,0 B,,Transaction,
1,119,0:03.753.584,21.500 us,0 B,,   MOSI,
1,120,0:03.753.584,21.500 us,0 B,,   MISO,
0,121,0:03.753.605,9.300 us,0 B,,Transaction,
1,122,0:03.753.605,9.300 us,0 B,,   MOSI,
1,123,0:03.753.605,9.300 us,0 B,,   MISO,
0,124,0:03.753.615,5.900 us,0 B,,Transaction,
1,125,0:03.753.615,5.900 us,0 B,,   MOSI,
1,126,0:03.753.615,5.900 us,0 B,,   MISO,
0,127,0:03.753.621,14.900 us,0 B,,Transaction,
1,128,0:03.753.621,14.900 us,0 B,,   MOSI,
1,129,0:03.753.621,14.900 us,0 B,,   MISO,
0,130,0:03.753.636,500 ns,0 B,,Transaction,
1,131,0:03.753.636,500 ns,0 B,,   MOSI,
1,132,0:03.753.636,500 ns,0 B,,   MISO,
0,133,0:03.753.636,1.300 us,0 B,,Transaction,
1,134,0:03.753.636,1.300 us,0 B,,   MOSI,
1,135,0:03.753.636,1.300 us,0 B,,   MISO,
0,136,0:03.753.638,5.300 us,0 B,,Transaction,
1,137,0:03.753.638,5.300 us,0 B,,   MOSI,
1,138,0:03.753.638,5.300 us,0 B,,   MISO,
0,139,0:03.753.643,300 ns,0 B,,Transaction,
1,140,0:03.753.643,300 ns,0 B,,   MOSI,
1,141,0:03.753.643,300 ns,0 B,,   MISO,
0,142,0:03.753.644,2.500 us,0 B,,Transaction,
1,143,0:03.753.644,2.500 us,0 B,,   MOSI,
1,144,0:03.753.644,2.500 us,0 B,,   MISO,
0,145,0:03.753.646,1.200 us,0 B,,Transaction,
1,146,0:03.753.646,1.200 us,0 B,,   MOSI,
1,147,0:03.753.646,1.200 us,0 B,,   MISO,
0,148,0:03.753.648,200 ns,0 B,,Transaction,
1,149,0:03.753.648,200 ns,0 B,,   MOSI,
1,150,0:03.753.648,200 ns,0 B,,   MISO,
0,151,0:03.753.648,100 ns,0 B,,Transaction,
1,152,0:03.753.648,100 ns,0 B,,   MOSI,
1,153,0:03.753.648,100 ns,0 B,,   MISO,
0,154,0:03.753.649,1.300 us,0 B,,Transaction,
1,155,0:03.753.649,1.300 us,0 B,,   MOSI,
1,156,0:03.753.649,1.300 us,0 B,,   MISO,
0,157,0:03.753.650,1.900 us,0 B,,Transaction,
1,158,0:03.753.650,1.900 us,0 B,,   MOSI,
1,159,0:03.753.650,1.900 us,0 B,,   MISO,
0,160,0:03.753.652,3.500 us,0 B,,Transaction,
1,161,0:03.753.652,3.500 us,0 B,,   MOSI,
1,162,0:03.753.652,3.500 us,0 B,,   MISO,
0,163,0:03.753.656,500 ns,0 B,,Transaction,
1,164,0:03.753.656,500 ns,0 B,,   MOSI,
1,165,0:03.753.656,500 ns,0 B,,   MISO,
0,166,0:03.753.657,300 ns,0 B,,Transaction,
1,167,0:03.753.657,300 ns,0 B,,   MOSI,
1,168,0:03.753.657,300 ns,0 B,,   MISO,
0,169,0:03.753.657,300 ns,0 B,,Transaction,
1,170,0:03.753.657,300 ns,0 B,,   MOSI,
1,171,0:03.753.657,300 ns,0 B,,   MISO,
0,172,0:03.753.658,2.900 us,0 B,,Transaction,
1,173,0:03.753.658,2.900 us,0 B,,   MOSI,
1,174,0:03.753.658,2.900 us,0 B,,   MISO,
0,175,0:03.753.661,1.500 us,0 B,,Transaction,
1,176,0:03.753.661,1.500 us,0 B,,   MOSI,
1,177,0:03.753.661,1.500 us,0 B,,   MISO,
0,178,0:03.753.662,2.100 us,0 B,,Transaction,
1,179,0:03.753.662,2.100 us,0 B,,   MOSI,
1,180,0:03.753.662,2.100 us,0 B,,   MISO,
0,181,0:03.753.665,100 ns,0 B,,Transaction,
1,182,0:03.753.665,100 ns,0 B,,   MOSI,
1,183,0:03.753.665,100 ns,0 B,,   MISO,
0,184,0:03.753.665,3.600 us,0 B,,Transaction,
1,185,0:03.753.665,3.600 us,0 B,,   MOSI,
1,186,0:03.753.665,3.600 us,0 B,,   MISO,
0,187,0:03.753.669,200 ns,0 B,,Transaction,
1,188,0:03.753.669,200 ns,0 B,,   MOSI,
1,189,0:03.753.669,200 ns,0 B,,   MISO,
0,190,0:03.753.670,200 ns,0 B,,Transaction,
1,191,0:03.753.670,200 ns,0 B,,   MOSI,
1,192,0:03.753.670,200 ns,0 B,,   MISO,
0,193,0:03.753.670,300 ns,0 B,,Transaction,
1,194,0:03.753.670,300 ns,0 B,,   MOSI,
1,195,0:03.753.670,300 ns,0 B,,   MISO,
0,196,0:03.753.671,200 ns,0 B,,Transaction,
1,197,0:03.753.671,200 ns,0 B,,   MOSI,
1,198,0:03.753.671,200 ns,0 B,,   MISO,
0,199,0:03.753.671,100 ns,0 B,,Transaction,
1,200,0:03.753.671,100 ns,0 B,,   MOSI,
1,201,0:03.753.671,100 ns,0 B,,   MISO,
0,202,0:03.753.672,1.700 us,0 B,,Transaction,
1,203,0:03.753.672,1.700 us,0 B,,   MOSI,
1,204,0:03.753.672,1.700 us,0 B,,   MISO,
0,205,0:03.753.674,100 ns,0 B,,Transaction,
1,206,0:03.753.674,100 ns,0 B,,   MOSI,
1,207,0:03.753.674,100 ns,0 B,,   MISO,
0,208,0:03.753.677,100 ns,0 B,,Transaction,
1,209,0:03.753.677,100 ns,0 B,,   MOSI,
1,210,0:03.753.677,100 ns,0 B,,   MISO,
0,211,0:03.753.679,200 ns,0 B,,Transaction,
1,212,0:03.753.679,200 ns,0 B,,   MOSI,
1,213,0:03.753.679,200 ns,0 B,,   MISO,
0,214,0:03.753.680,100 ns,0 B,,Transaction,
1,215,0:03.753.680,100 ns,0 B,,   MOSI,
1,216,0:03.753.680,100 ns,0 B,,   MISO,
0,217,0:03.753.681,300 ns,0 B,,Transaction,
1,218,0:03.753.681,300 ns,0 B,,   MOSI,
1,219,0:03.753.681,300 ns,0 B,,   MISO,
0,220,0:03.753.681,100 ns,0 B,,Transaction,
1,221,0:03.753.681,100 ns,0 B,,   MOSI,
1,222,0:03.753.681,100 ns,0 B,,   MISO,
0,223,0:03.753.682,4.900 us,0 B,,Transaction,
1,224,0:03.753.682,4.900 us,0 B,,   MOSI,
1,225,0:03.753.682,4.900 us,0 B,,   MISO,
0,226,0:03.753.687,100 ns,0 B,,Transaction,
1,227,0:03.753.687,100 ns,0 B,,   MOSI,
1,228,0:03.753.687,100 ns,0 B,,   MISO,
0,229,0:03.753.688,2.900 us,0 B,,Transaction,
1,230,0:03.753.688,2.900 us,0 B,,   MOSI,
1,231,0:03.753.688,2.900 us,0 B,,   MISO,
0,232,0:03.753.691,400 ns,0 B,,Transaction,
1,233,0:03.753.691,400 ns,0 B,,   MOSI,
1,234,0:03.753.691,400 ns,0 B,,   MISO,
0,235,0:03.753.692,200 ns,0 B,,Transaction,
1,236,0:03.753.692,200 ns,0 B,,   MOSI,
1,237,0:03.753.692,200 ns,0 B,,   MISO,
0,238,0:03.753.692,400 ns,0 B,,Transaction,
1,239,0:03.753.692,400 ns,0 B,,   MOSI,
1,240,0:03.753.692,400 ns,0 B,,   MISO,
0,241,0:03.753.693,3.000 us,0 B,,Transaction,
1,242,0:03.753.693,3.000 us,0 B,,   MOSI,
1,243,0:03.753.693,3.000 us,0 B,,   MISO,
0,244,0:03.753.696,2.000 us,0 B,,Transaction,
1,245,0:03.753.696,2.000 us,0 B,,   MOSI,
1,246,0:03.753.696,2.000 us,0 B,,   MISO,
0,247,0:03.753.698,10.900 us,0 B,,Transaction,
1,248,0:03.753.698,10.900 us,0 B,,   MOSI,
1,249,0:03.753.698,10.900 us,0 B,,   MISO,
0,250,0:03.753.709,7.500 us,0 B,,Transaction,
1,251,0:03.753.709,7.500 us,0 B,,   MOSI,
1,252,0:03.753.709,7.500 us,0 B,,   MISO,
0,253,0:03.753.717,100 ns,0 B,,Transaction,
1,254,0:03.753.717,100 ns,0 B,,   MOSI,
1,255,0:03.753.717,100 ns,0 B,,   MISO,
0,256,0:03.753.719,100 ns,0 B,,Transaction,
1,257,0:03.753.719,100 ns,0 B,,   MOSI,
1,258,0:03.753.719,100 ns,0 B,,   MISO,
0,259,0:03.753.721,300 ns,0 B,,Transaction,
1,260,0:03.753.721,300 ns,0 B,,   MOSI,
1,261,0:03.753.721,300 ns,0 B,,   MISO,
0,262,0:03.753.721,2.700 us,0 B,,Transaction,
1,263,0:03.753.721,2.700 us,0 B,,   MOSI,
1,264,0:03.753.721,2.700 us,0 B,,   MISO,
0,265,0:03.753.724,15.900 us,0 B,,Transaction,
1,266,0:03.753.724,15.900 us,0 B,,   MOSI,
1,267,0:03.753.724,15.900 us,0 B,,   MISO,
0,268,0:03.753.740,1.300 us,0 B,,Transaction,
1,269,0:03.753.740,1.300 us,0 B,,   MOSI,
1,270,0:03.753.740,1.300 us,0 B,,   MISO,
0,271,0:03.753.742,100 ns,0 B,,Transaction,
1,272,0:03.753.742,100 ns,0 B,,   MOSI,
1,273,0:03.753.742,100 ns,0 B,,   MISO,
0,274,0:03.753.743,1.400 us,0 B,,Transaction,
1,275,0:03.753.743,1.400 us,0 B,,   MOSI,
1,276,0:03.753.743,1.400 us,0 B,,   MISO,
0,277,0:03.753.744,3.100 us,0 B,,Transaction,
1,278,0:03.753.744,3.100 us,0 B,,   MOSI,
1,279,0:03.753.744,3.100 us,0 B,,   MISO,
0,280,0:03.753.747,900 ns,0 B,,Transaction,
1,281,0:03.753.747,900 ns,0 B,,   MOSI,
1,282,0:03.753.747,900 ns,0 B,,   MISO,
0,283,0:03.753.755,100 ns,0 B,,Transaction,
1,284,0:03.753.755,100 ns,0 B,,   MOSI,
1,285,0:03.753.755,100 ns,0 B,,   MISO,
0,286,0:03.753.758,100 ns,0 B,,Transaction,
1,287,0:03.753.758,100 ns,0 B,,   MOSI,
1,288,0:03.753.758,100 ns,0 B,,   MISO,
0,289,0:03.753.759,300 ns,0 B,,Transaction,
1,290,0:03.753.759,300 ns,0 B,,   MOSI,
1,291,0:03.753.759,300 ns,0 B,,   MISO,
0,292,0:03.753.759,200 ns,0 B,,Transaction,
1,293,0:03.753.759,200 ns,0 B,,   MOSI,
1,294,0:03.753.759,200 ns,0 B,,   MISO,
0,295,0:03.753.764,600 ns,0 B,,Transaction,
1,296,0:03.753.764,600 ns,0 B,,   MOSI,
1,297,0:03.753.764,600 ns,0 B,,   MISO,
0,298,0:03.753.765,1.900 us,0 B,,Transaction,
1,299,0:03.753.765,1.900 us,0 B,,   MOSI,
1,300,0:03.753.765,1.900 us,0 B,,   MISO,
0,301,0:03.753.767,6.000 us,0 B,,Transaction,
1,302,0:03.753.767,6.000 us,0 B,,   MOSI,
1,303,0:03.753.767,6.000 us,0 B,,   MISO,
0,304,0:03.753.773,5.700 us,0 B,,Transaction,
1,305,0:03.753.773,5.700 us,0 B,,   MOSI,
1,306,0:03.753.773,5.700 us,0 B,,   MISO,
0,307,0:03.753.779,300 ns,0 B,,Transaction,
1,308,0:03.753.779,300 ns,0 B,,   MOSI,
1,309,0:03.753.779,300 ns,0 B,,   MISO,
0,310,0:03.753.780,200 ns,0 B,,Transaction,
1,311,0:03.753.780,200 ns,0 B,,   MOSI,
1,312,0:03.753.780,200 ns,0 B,,   MISO,
0,313,0:03.753.783,400 ns,0 B,,Transaction,
1,314,0:03.753.783,400 ns,0 B,,   MOSI,
1,315,0:03.753.783,400 ns,0 B,,   MISO,
0,316,0:03.753.784,400 ns,0 B,,Transaction,
1,317,0:03.753.784,400 ns,0 B,,   MOSI,
1,318,0:03.753.784,400 ns,0 B,,   MISO,
0,319,0:03.753.784,200 ns,0 B,,Transaction,
1,320,0:03.753.784,200 ns,0 B,,   MOSI,
1,321,0:03.753.784,200 ns,0 B,,   MISO,
0,322,0:03.753.786,200 ns,0 B,,Transaction,
1,323,0:03.753.786,200 ns,0 B,,   MOSI,
1,324,0:03.753.786,200 ns,0 B,,   MISO,
0,325,0:03.753.786,900 ns,0 B,,Transaction,
1,326,0:03.753.786,900 ns,0 B,,   MOSI,
1,327,0:03.753.786,900 ns,0 B,,   MISO,
0,328,0:03.753.787,2.600 us,0 B,,Transaction,
1,329,0:03.753.787,2.600 us,0 B,,   MOSI,
1,330,0:03.753.787,2.600 us,0 B,,   MISO,
0,331,0:03.753.790,100 ns,0 B,,Transaction,
1,332,0:03.753.790,100 ns,0 B,,   MOSI,
1,333,0:03.753.790,100 ns,0 B,,   MISO,
0,334,0:03.753.790,1.300 us,0 B,,Transaction,
1,335,0:03.753.790,1.300 us,0 B,,   MOSI,
1,336,0:03.753.790,1.300 us,0 B,,   MISO,
0,337,0:03.753.793,200 ns,0 B,,Transaction,
1,338,0:03.753.793,200 ns,0 B,,   MOSI,
1,339,0:03.753.793,200 ns,0 B,,   MISO,
0,340,0:03.753.800,100 ns,0 B,,Transaction,
1,341,0:03.753.800,100 ns,0 B,,   MOSI,
1,342,0:03.753.800,100 ns,0 B,,   MISO,
0,343,0:03.753.802,200 ns,0 B,,Transaction,
1,344,0:03.753.802,200 ns,0 B,,   MOSI,
1,345,0:03.753.802,200 ns,0 B,,   MISO,
0,346,0:03.753.817,100 ns,0 B,,Transaction,
1,347,0:03.753.817,100 ns,0 B,,   MOSI,
1,348,0:03.753.817,100 ns,0 B,,   MISO,
0,349,0:03.753.818,3.300 us,0 B,,Transaction,
1,350,0:03.753.818,3.300 us,0 B,,   MOSI,
1,351,0:03.753.818,3.300 us,0 B,,   MISO,
0,352,0:03.753.822,500 ns,0 B,,Transaction,
1,353,0:03.753.822,500 ns,0 B,,   MOSI,
1,354,0:03.753.822,500 ns,0 B,,   MISO,
0,355,0:03.753.823,500 ns,0 B,,Transaction,
1,356,0:03.753.823,500 ns,0 B,,   MOSI,
1,357,0:03.753.823,500 ns,0 B,,   MISO,
0,358,0:03.753.825,700 ns,0 B,,Transaction,
1,359,0:03.753.825,700 ns,0 B,,   MOSI,
1,360,0:03.753.825,700 ns,0 B,,   MISO,
0,361,0:03.753.826,400 ns,0 B,,Transaction,
1,362,0:03.753.826,400 ns,0 B,,   MOSI,
1,363,0:03.753.826,400 ns,0 B,,   MISO,
0,364,0:03.753.826,300 ns,0 B,,Transaction,
1,365,0:03.753.826,300 ns,0 B,,   MOSI,
1,366,0:03.753.826,300 ns,0 B,,   MISO,
0,367,0:03.753.827,600 ns,0 B,,Transaction,
1,368,0:03.753.827,600 ns,0 B,,   MOSI,
1,369,0:03.753.827,600 ns,0 B,,   MISO,
0,370,0:03.753.829,700 ns,0 B,,Transaction,
1,371,0:03.753.829,700 ns,0 B,,   MOSI,
1,372,0:03.753.829,700 ns,0 B,,   MISO,
0,373,0:03.753.830,300 ns,0 B,,Transaction,
1,374,0:03.753.830,300 ns,0 B,,   MOSI,
1,375,0:03.753.830,300 ns,0 B,,   MISO,
0,376,0:03.753.832,5.200 us,0 B,,Transaction,
1,377,0:03.753.832,5.200 us,0 B,,   MOSI,
1,378,0:03.753.832,5.200 us,0 B,,   MISO,
0,379,0:03.753.838,6.100 us,0 B,,Transaction,
1,380,0:03.753.838,6.100 us,0 B,,   MOSI,
1,381,0:03.753.838,6.100 us,0 B,,   MISO,
0,382,0:03.753.844,2.500 us,0 B,,Transaction,
1,383,0:03.753.844,2.500 us,0 B,,   MOSI,
1,384,0:03.753.844,2.500 us,0 B,,   MISO,
0,385,0:03.753.847,100 ns,0 B,,Transaction,
1,386,0:03.753.847,100 ns,0 B,,   MOSI,
1,387,0:03.753.847,100 ns,0 B,,   MISO,
0,388,0:03.753.850,400 ns,0 B,,Transaction,
1,389,0:03.753.850,400 ns,0 B,,   MOSI,
1,390,0:03.753.850,400 ns,0 B,,   MISO,
0,391,0:03.753.861,1.400 us,0 B,,Transaction,
1,392,0:03.753.861,1.400 us,0 B,,   MOSI,
1,393,0:03.753.861,1.400 us,0 B,,   MISO,
0,394,0:03.753.866,100 ns,0 B,,Transaction,
1,395,0:03.753.866,100 ns,0 B,,   MOSI,
1,396,0:03.753.866,100 ns,0 B,,   MISO,
0,397,0:03.753.867,600 ns,0 B,,Transaction,
1,398,0:03.753.867,600 ns,0 B,,   MOSI,
1,399,0:03.753.867,600 ns,0 B,,   MISO,
0,400,0:03.753.872,9.900 us,0 B,,Transaction,
1,401,0:03.753.872,9.900 us,0 B,,   MOSI,
1,402,0:03.753.872,9.900 us,0 B,,   MISO,
0,403,0:03.753.884,100 ns,0 B,,Transaction,
1,404,0:03.753.884,100 ns,0 B,,   MOSI,
1,405,0:03.753.884,100 ns,0 B,,   MISO,
0,406,0:03.753.887,100 ns,0 B,,Transaction,
1,407,0:03.753.887,100 ns,0 B,,   MOSI,
1,408,0:03.753.887,100 ns,0 B,,   MISO,
0,409,0:03.753.888,3.000 us,0 B,,Transaction,
1,410,0:03.753.888,3.000 us,0 B,,   MOSI,
1,411,0:03.753.888,3.000 us,0 B,,   MISO,
0,412,0:03.753.944,300 ns,0 B,,Transaction,
1,413,0:03.753.944,300 ns,0 B,,   MOSI,
1,414,0:03.753.944,300 ns,0 B,,   MISO,
0,415,0:03.753.944,200 ns,0 B,,Transaction,
1,416,0:03.753.944,200 ns,0 B,,   MOSI,
1,417,0:03.753.944,200 ns,0 B,,   MISO,
0,418,0:03.753.945,200 ns,0 B,,Transaction,
1,419,0:03.753.945,200 ns,0 B,,   MOSI,
1,420,0:03.753.945,200 ns,0 B,,   MISO,
0,421,0:03.753.945,200 ns,0 B,,Transaction,
1,422,0:03.753.945,200 ns,0 B,,   MOSI,
1,423,0:03.753.945,200 ns,0 B,,   MISO,
0,424,0:03.753.947,3.300 us,0 B,,Transaction,
1,425,0:03.753.947,3.300 us,0 B,,   MOSI,
1,426,0:03.753.947,3.300 us,0 B,,   MISO,
0,427,0:03.753.951,300 ns,0 B,,Transaction,
1,428,0:03.753.951,300 ns,0 B,,   MOSI,
1,429,0:03.753.951,300 ns,0 B,,   MISO,
0,430,0:03.753.956,500 ns,0 B,,Transaction,
1,431,0:03.753.956,500 ns,0 B,,   MOSI,
1,432,0:03.753.956,500 ns,0 B,,   MISO,
0,433,0:03.753.960,1.000 us,0 B,,Transaction,
1,434,0:03.753.960,1.000 us,0 B,,   MOSI,
1,435,0:03.753.960,1.000 us,0 B,,   MISO,
0,436,0:03.753.977,100 ns,0 B,,Transaction,
1,437,0:03.753.977,100 ns,0 B,,   MOSI,
1,438,0:03.753.977,100 ns,0 B,,   MISO,
0,439,0:03.754.027,100 ns,0 B,,Transaction,
1,440,0:03.754.027,100 ns,0 B,,   MOSI,
1,441,0:03.754.027,100 ns,0 B,,   MISO,
0,442,0:03.754.503,100 ns,0 B,,Transaction,
1,443,0:03.754.503,100 ns,0 B,,   MOSI,
1,444,0:03.754.503,100 ns,0 B,,   MISO,
0,445,0:03.754.515,500 ns,0 B,,Transaction,
1,446,0:03.754.515,500 ns,0 B,,   MOSI,
1,447,0:03.754.515,500 ns,0 B,,   MISO,
0,448,0:03.754.515,200 ns,0 B,,Transaction,
1,449,0:03.754.515,200 ns,0 B,,   MOSI,
1,450,0:03.754.515,200 ns,0 B,,   MISO,
0,451,0:03.754.516,100 ns,0 B,,Transaction,
1,452,0:03.754.516,100 ns,0 B,,   MOSI,
1,453,0:03.754.516,100 ns,0 B,,   MISO,
0,454,0:03.754.531,200 ns,0 B,,Transaction,
1,455,0:03.754.531,200 ns,0 B,,   MOSI,
1,456,0:03.754.531,200 ns,0 B,,   MISO,
0,457,0:03.754.544,100 ns,0 B,,Transaction,
1,458,0:03.754.544,100 ns,0 B,,   MOSI,
1,459,0:03.754.544,100 ns,0 B,,   MISO,
0,460,0:03.754.550,200 ns,0 B,,Transaction,
1,461,0:03.754.550,200 ns,0 B,,   MOSI,
1,462,0:03.754.550,200 ns,0 B,,   MISO,
0,463,0:03.754.552,200 ns,0 B,,Transaction,
1,464,0:03.754.552,200 ns,0 B,,   MOSI,
1,465,0:03.754.552,200 ns,0 B,,   MISO,
0,466,0:03.754.553,100 ns,0 B,,Transaction,
1,467,0:03.754.553,100 ns,0 B,,   MOSI,
1,468,0:03.754.553,100 ns,0 B,,   MISO,
0,469,0:03.754.554,100 ns,0 B,,Transaction,
1,470,0:03.754.554,100 ns,0 B,,   MOSI,
1,471,0:03.754.554,100 ns,0 B,,   MISO,
0,472,0:03.754.554,300 ns,0 B,,Transaction,
1,473,0:03.754.554,300 ns,0 B,,   MOSI,
1,474,0:03.754.554,300 ns,0 B,,   MISO,
0,475,0:03.754.555,100 ns,0 B,,Transaction,
1,476,0:03.754.555,100 ns,0 B,,   MOSI,
1,477,0:03.754.555,100 ns,0 B,,   MISO,
0,478,0:03.754.557,100 ns,0 B,,Transaction,
1,479,0:03.754.557,100 ns,0 B,,   MOSI,
1,480,0:03.754.557,100 ns,0 B,,   MISO,
0,481,0:03.754.560,100 ns,0 B,,Transaction,
1,482,0:03.754.560,100 ns,0 B,,   MOSI,
1,483,0:03.754.560,100 ns,0 B,,   MISO,
0,484,0:03.754.565,100 ns,0 B,,Transaction,
1,485,0:03.754.565,100 ns,0 B,,   MOSI,
1,486,0:03.754.565,100 ns,0 B,,   MISO,
0,487,0:03.754.567,300 ns,0 B,,Transaction,
1,488,0:03.754.567,300 ns,0 B,,   MOSI,
1,489,0:03.754.567,300 ns,0 B,,   MISO,
0,490,0:03.754.574,100 ns,0 B,,Transaction,
1,491,0:03.754.574,100 ns,0 B,,   MOSI,
1,492,0:03.754.574,100 ns,0 B,,   MISO,
0,493,0:03.754.585,400 ns,0 B,,Transaction,
1,494,0:03.754.585,400 ns,0 B,,   MOSI,
1,495,0:03.754.585,400 ns,0 B,,   MISO,
0,496,0:03.754.585,100 ns,0 B,,Transaction,
1,497,0:03.754.585,100 ns,0 B,,   MOSI,
1,498,0:03.754.585,100 ns,0 B,,   MISO,
0,499,0:03.754.596,100 ns,0 B,,Transaction,
1,500,0:03.754.596,100 ns,0 B,,   MOSI,
1,501,0:03.754.596,100 ns,0 B,,   MISO,
0,502,0:03.754.604,100 ns,0 B,,Transaction,
1,503,0:03.754.604,100 ns,0 B,,   MOSI,
1,504,0:03.754.604,100 ns,0 B,,   MISO,
0,505,0:03.754.613,500 ns,0 B,,Transaction,
1,506,0:03.754.613,500 ns,0 B,,   MOSI,
1,507,0:03.754.613,500 ns,0 B,,   MISO,
0,508,0:03.754.615,100 ns,0 B,,Transaction,
1,509,0:03.754.615,100 ns,0 B,,   MOSI,
1,510,0:03.754.615,100 ns,0 B,,   MISO,
0,511,0:03.754.646,100 ns,0 B,,Transaction,
1,512,0:03.754.646,100 ns,0 B,,   MOSI,
1,513,0:03.754.646,100 ns,0 B,,   MISO,
0,514,0:03.754.650,200 ns,0 B,,Transaction,
1,515,0:03.754.650,200 ns,0 B,,   MOSI,
1,516,0:03.754.650,200 ns,0 B,,   MISO,
0,517,0:03.754.679,100 ns,0 B,,Transaction,
1,518,0:03.754.679,100 ns,0 B,,   MOSI,
1,519,0:03.754.679,100 ns,0 B,,   MISO,
0,520,0:03.754.710,100 ns,0 B,,Transaction,
1,521,0:03.754.710,100 ns,0 B,,   MOSI,
1,522,0:03.754.710,100 ns,0 B,,   MISO,
0,523,0:03.754.722,100 ns,0 B,,Transaction,
1,524,0:03.754.722,100 ns,0 B,,   MOSI,
1,525,0:03.754.722,100 ns,0 B,,   MISO,
0,526,0:03.754.729,100 ns,0 B,,Transaction,
1,527,0:03.754.729,100 ns,0 B,,   MOSI,
1,528,0:03.754.729,100 ns,0 B,,   MISO,
0,529,0:03.754.738,400 ns,0 B,,Transaction,
1,530,0:03.754.738,400 ns,0 B,,   MOSI,
1,531,0:03.754.738,400 ns,0 B,,   MISO,
0,532,0:03.754.747,200 ns,0 B,,Transaction,
1,533,0:03.754.747,200 ns,0 B,,   MOSI,
1,534,0:03.754.747,200 ns,0 B,,   MISO,
0,535,0:03.754.750,100 ns,0 B,,Transaction,
1,536,0:03.754.750,100 ns,0 B,,   MOSI,
1,537,0:03.754.750,100 ns,0 B,,   MISO,
0,538,0:03.754.753,100 ns,0 B,,Transaction,
1,539,0:03.754.753,100 ns,0 B,,   MOSI,
1,540,0:03.754.753,100 ns,0 B,,   MISO,
0,541,0:03.754.768,100 ns,0 B,,Transaction,
1,542,0:03.754.768,100 ns,0 B,,   MOSI,
1,543,0:03.754.768,100 ns,0 B,,   MISO,
0,544,0:03.754.768,200 ns,0 B,,Transaction,
1,545,0:03.754.768,200 ns,0 B,,   MOSI,
1,546,0:03.754.768,200 ns,0 B,,   MISO,
0,547,0:03.754.769,100 ns,0 B,,Transaction,
1,548,0:03.754.769,100 ns,0 B,,   MOSI,
1,549,0:03.754.769,100 ns,0 B,,   MISO,
0,550,0:03.754.773,100 ns,0 B,,Transaction,
1,551,0:03.754.773,100 ns,0 B,,   MOSI,
1,552,0:03.754.773,100 ns,0 B,,   MISO,
0,553,0:03.754.775,300 ns,0 B,,Transaction,
1,554,0:03.754.775,300 ns,0 B,,   MOSI,
1,555,0:03.754.775,300 ns,0 B,,   MISO,
0,556,0:03.754.776,200 ns,0 B,,Transaction,
1,557,0:03.754.776,200 ns,0 B,,   MOSI,
1,558,0:03.754.776,200 ns,0 B,,   MISO,
0,559,0:03.754.783,200 ns,0 B,,Transaction,
1,560,0:03.754.783,200 ns,0 B,,   MOSI,
1,561,0:03.754.783,200 ns,0 B,,   MISO,
0,562,0:03.754.783,100 ns,0 B,,Transaction,
1,563,0:03.754.783,100 ns,0 B,,   MOSI,
1,564,0:03.754.783,100 ns,0 B,,   MISO,
0,565,0:03.754.784,100 ns,0 B,,Transaction,
1,566,0:03.754.784,100 ns,0 B,,   MOSI,
1,567,0:03.754.784,100 ns,0 B,,   MISO,
0,568,0:03.754.787,100 ns,0 B,,Transaction,
1,569,0:03.754.787,100 ns,0 B,,   MOSI,
1,570,0:03.754.787,100 ns,0 B,,   MISO,
0,571,0:03.754.799,100 ns,0 B,,Transaction,
1,572,0:03.754.799,100 ns,0 B,,   MOSI,
1,573,0:03.754.799,100 ns,0 B,,   MISO,
0,574,0:03.754.824,100 ns,0 B,,Transaction,
1,575,0:03.754.824,100 ns,0 B,,   MOSI,
1,576,0:03.754.824,100 ns,0 B,,   MISO,
0,577,0:03.754.835,100 ns,0 B,,Transaction,
1,578,0:03.754.835,100 ns,0 B,,   MOSI,
1,579,0:03.754.835,100 ns,0 B,,   MISO,
0,580,0:03.754.840,200 ns,0 B,,Transaction,
1,581,0:03.754.840,200 ns,0 B,,   MOSI,
1,582,0:03.754.840,200 ns,0 B,,   MISO,
0,583,0:03.754.843,100 ns,0 B,,Transaction,
1,584,0:03.754.843,100 ns,0 B,,   MOSI,
1,585,0:03.754.843,100 ns,0 B,,   MISO,
0,586,0:03.754.849,200 ns,0 B,,Transaction,
1,587,0:03.754.849,200 ns,0 B,,   MOSI,
1,588,0:03.754.849,200 ns,0 B,,   MISO,
0,589,0:03.757.140,100 ns,0 B,,Transaction,
1,590,0:03.757.140,100 ns,0 B,,   MOSI,
1,591,0:03.757.140,100 ns,0 B,,   MISO,
0,592,0:03.757.141,100 ns,0 B,,Transaction,
1,593,0:03.757.141,100 ns,0 B,,   MOSI,
1,594,0:03.757.141,100 ns,0 B,,   MISO,
0,595,0:03.757.291,100 ns,0 B,,Transaction,
1,596,0:03.757.291,100 ns,0 B,,   MOSI,
1,597,0:03.757.291,100 ns,0 B,,   MISO,
0,598,0:03.757.295,200 ns,0 B,,Transaction,
1,599,0:03.757.295,200 ns,0 B,,   MOSI,
1,600,0:03.757.295,200 ns,0 B,,   MISO,
0,601,0:03.757.775,100 ns,0 B,,Transaction,
1,602,0:03.757.775,100 ns,0 B,,   MOSI,
1,603,0:03.757.775,100 ns,0 B,,   MISO,
0,604,0:03.759.402,200 ns,0 B,,Transaction,
1,605,0:03.759.402,200 ns,0 B,,   MOSI,
1,606,0:03.759.402,200 ns,0 B,,   MISO,
0,607,0:03.765.305,90.100 us,0 B,,Transaction,
1,608,0:03.765.305,90.100 us,0 B,,   MOSI,
1,609,0:03.765.305,90.100 us,0 B,,   MISO,
0,610,0:03.782.066,256.700 us,5 B,,Transaction,01FF 4241 005A 00FF 00FF
1,611,0:03.782.066,256.700 us,5 B,,   MOSI,01 42 00 00 00
1,612,0:03.782.066,256.700 us,5 B,,   MISO,FF 41 5A FF FF
0,613,0:03.798.676,257.500 us,5 B,,Transaction,01FF 4341 005A 01FF 00FF
1,614,0:03.798.676,257.500 us,5 B,,   MOSI,01 43 00 01 00
1,615,0:03.798.676,257.500 us,5 B,,   MISO,FF 41 5A FF FF
0,616,0:03.815.367,453.500 us,9 B,,Transaction,01FF 45F3 005A 5A03 5A02 5A00 5A02 5A01 5A00
1,617,0:03.815.367,453.500 us,9 B,,   MOSI,01 45 00 5A 5A 5A 5A 5A 5A
1,618,0:03.815.367,453.500 us,9 B,,   MISO,FF F3 5A 03 02 00 02 01 00
0,619,0:03.832.052,454.600 us,9 B,,Transaction,01FF 46F3 005A 0000 5A00 5A01 5A02 5A00 5A0F
1,620,0:03.832.052,454.600 us,9 B,,   MOSI,01 46 00 00 5A 5A 5A 5A 5A
1,621,0:03.832.052,454.600 us,9 B,,   MISO,FF F3 5A 00 00 01 02 00 0F
0,622,0:03.848.734,454.400 us,9 B,,Transaction,01FF 46F3 005A 0100 5A00 5A01 5A01 5A01 5A0F
1,623,0:03.848.734,454.400 us,9 B,,   MOSI,01 46 00 01 5A 5A 5A 5A 5A
1,624,0:03.848.734,454.400 us,9 B,,   MISO,FF F3 5A 00 00 01 01 01 0F
0,625,0:03.865.421,453.500 us,9 B,,Transaction,01FF 47F3 005A 0000 5A00 5A02 5A00 5A01 5A00
1,626,0:03.865.421,453.500 us,9 B,,   MOSI,01 47 00 00 5A 5A 5A 5A 5A
1,627,0:03.865.421,453.500 us,9 B,,   MISO,FF F3 5A 00 00 02 00 01 00
0,628,0:03.882.109,454.900 us,9 B,,Transaction,01FF 4CF3 005A 0000 5A00 5A00 5A04 5A00 5A00
1,629,0:03.882.109,454.900 us,9 B,,   MOSI,01 4C 00 00 5A 5A 5A 5A 5A
1,630,0:03.882.109,454.900 us,9 B,,   MISO,FF F3 5A 00 00 00 04 00 00
0,631,0:03.898.794,454.500 us,9 B,,Transaction,01FF 4CF3 005A 0100 5A00 5A00 5A07 5A00 5A00
1,632,0:03.898.794,454.500 us,9 B,,   MOSI,01 4C 00 01 5A 5A 5A 5A 5A
1,633,0:03.898.794,454.500 us,9 B,,   MISO,FF F3 5A 00 00 00 07 00 00
0,634,0:03.915.478,454.300 us,9 B,,Transaction,01FF 4DF3 005A FFFF FFFF FFFF FFFF FFFF FFFF
1,635,0:03.915.478,454.300 us,9 B,,   MOSI,01 4D 00 FF FF FF FF FF FF
1,636,0:03.915.478,454.300 us,9 B,,   MISO,FF F3 5A FF FF FF FF FF FF
0,637,0:03.932.161,454.300 us,9 B,,Transaction,01FF 41F3 005A 5A00 5A00 5A00 5A00 5A00 5A00
1,638,0:03.932.161,454.300 us,9 B,,   MOSI,01 41 00 5A 5A 5A 5A 5A 5A
1,639,0:03.932.161,454.300 us,9 B,,   MISO,FF F3 5A 00 00 00 00 00 00
0,640,0:03.948.850,453.500 us,9 B,,Transaction,01FF 43F3 005A 0000 5A00 5A00 5A00 5A00 5A00
1,641,0:03.948.850,453.500 us,9 B,,   MOSI,01 43 00 00 5A 5A 5A 5A 5A
1,642,0:03.948.850,453.500 us,9 B,,   MISO,FF F3 5A 00 00 00 00 00 00
0,643,0:03.965.526,256.700 us,5 B,,Transaction,01FF 4241 005A 00FF 00FF
1,644,0:03.965.526,256.700 us,5 B,,   MOSI,01 42 00 00 00
1,645,0:03.965.526,256.700 us,5 B,,   MISO,FF 41 5A FF FF
0,646,0:03.982.213,256.900 us,5 B,,Transaction,01FF 4241 005A 00FF 00FF
1,647,0:03.982.213,256.900 us,5 B,,   MOSI,01 42 00 00 00
1,648,0:03.982.213,256.900 us,5 B,,   MISO,FF 41 5A FF FF
0,649,0:03.998.898,257.100 us,5 B,,Transaction,01FF 4241 005A 00FF 00FF
1,650,0:03.998.898,257.100 us,5 B,,   MOSI,01 42 00 00 00
1,651,0:03.998.898,257.100 us,5 B,,   MISO,FF 41 5A FF FF
0,652,0:04.015.585,256.200 us,5 B,,Transaction,01FF 4341 005A 01FF 00FF
1,653,0:04.015.585,256.200 us,5 B,,   MOSI,01 43 00 01 00
1,654,0:04.015.585,256.200 us,5 B,,   MISO,FF 41 5A FF FF
0,655,0:04.032.613,454.200 us,9 B,,Transaction,01FF 44F3 005A 0100 0300 0000 0000 0000 0000
1,656,0:04.032.613,454.200 us,9 B,,   MOSI,01 44 00 01 03 00 00 00 00
1,657,0:04.032.613,454.200 us,9 B,,   MISO,FF F3 5A 00 00 00 00 00 00
0,658,0:04.048.960,454.600 us,9 B,,Transaction,01FF 43F3 005A 0000 5A00 5A00 5A00 5A00 5A00
1,659,0:04.048.960,454.600 us,9 B,,   MOSI,01 43 00 00 5A 5A 5A 5A 5A
1,660,0:04.048.960,454.600 us,9 B,,   MISO,FF F3 5A 00 00 00 00 00 00
0,661,0:04.065.636,256.500 us,5 B,,Transaction,01FF 4273 005A 00FF 00FF
1,662,0:04.065.636,256.500 us,5 B,,   MOSI,01 42 00 00 00
1,663,0:04.065.636,256.500 us,5 B,,   MISO,FF 73 5A FF FF
0,664,0:04.082.325,255.900 us,5 B,,Transaction,01FF 4273 005A 00FF 00FF
1,665,0:04.082.325,255.900 us,5 B,,   MOSI,01 42 00 00 00
1,666,0:04.082.325,255.900 us,5 B,,   MISO,FF 73 5A FF FF
0,667,0:04.099.104,454.200 us,9 B,,Transaction,01FF 4373 005A 01FF 00FF 0080 0080 0080 0080
1,668,0:04.099.104,454.200 us,9 B,,   MOSI,01 43 00 01 00 00 00 00 00
1,669,0:04.099.104,454.200 us,9 B,,   MISO,FF 73 5A FF FF 80 80 80 80
0,670,0:04.115.700,453.600 us,9 B,,Transaction,01FF 45F3 005A 5A03 5A02 5A01 5A02 5A01 5A00
1,671,0:04.115.700,453.600 us,9 B,,   MOSI,01 45 00 5A 5A 5A 5A 5A 5A
1,672,0:04.115.700,453.600 us,9 B,,   MISO,FF F3 5A 03 02 01 02 01 00
0,673,0:04.132.387,454.800 us,9 B,,Transaction,01FF 46F3 005A 0000 5A00 5A01 5A02 5A00 5A0F
1,674,0:04.132.387,454.800 us,9 B,,   MOSI,01 46 00 00 5A 5A 5A 5A 5A
1,675,0:04.132.387,454.800 us,9 B,,   MISO,FF F3 5A 00 00 01 02 00 0F
0,676,0:04.149.069,454.900 us,9 B,,Transaction,01FF 46F3 005A 0100 5A00 5A01 5A01 5A01 5A0F
1,677,0:04.149.069,454.900 us,9 B,,   MOSI,01 46 00 01 5A 5A 5A 5A 5A
1,678,0:04.149.069,454.900 us,9 B,,   MISO,FF F3 5A 00 00 01 01 01 0F
0,679,0:04.165.756,453.700 us,9 B,,Transaction,01FF 47F3 005A 0000 5A00 5A02 5A00 5A01 5A00
1,680,0:04.165.756,453.700 us,9 B,,   MOSI,01 47 00 00 5A 5A 5A 5A 5A
1,681,0:04.165.756,453.700 us,9 B,,   MISO,FF F3 5A 00 00 02 00 01 00
0,682,0:04.182.439,453.700 us,9 B,,Transaction,01FF 4CF3 005A 0000 5A00 5A00 5A04 5A00 5A00
1,683,0:04.182.439,453.700 us,9 B,,   MOSI,01 4C 00 00 5A 5A 5A 5A 5A
1,684,0:04.182.439,453.700 us,9 B,,   MISO,FF F3 5A 00 00 00 04 00 00
0,685,0:04.199.125,453.300 us,9 B,,Transaction,01FF 4CF3 005A 0100 5A00 5A00 5A07 5A00 5A00
1,686,0:04.199.125,453.300 us,9 B,,   MOSI,01 4C 00 01 5A 5A 5A 5A 5A
1,687,0:04.199.125,453.300 us,9 B,,   MISO,FF F3 5A 00 00 00 07 00 00
0,688,0:04.215.808,454.100 us,9 B,,Transaction,01FF 4DF3 005A 00FF 01FF FFFF FFFF FFFF FFFF
1,689,0:04.215.808,454.100 us,9 B,,   MOSI,01 4D 00 00 01 FF FF FF FF
1,690,0:04.215.808,454.100 us,9 B,,   MISO,FF F3 5A FF FF FF FF FF FF
0,691,0:04.232.495,453.300 us,9 B,,Transaction,01FF 41F3 005A 5AFF 5AFF 5A03 5A00 5A00 5A5A
1,692,0:04.232.495,453.300 us,9 B,,   MOSI,01 41 00 5A 5A 5A 5A 5A 5A
1,693,0:04.232.495,453.300 us,9 B,,   MISO,FF F3 5A FF FF 03 00 00 5A
0,694,0:04.249.179,455.100 us,9 B,,Transaction,01FF 43F3 005A 0000 5A00 5A00 5A00 5A00 5A00
1,695,0:04.249.179,455.100 us,9 B,,   MOSI,01 43 00 00 5A 5A 5A 5A 5A
1,696,0:04.249.179,455.100 us,9 B,,   MISO,FF F3 5A 00 00 00 00 00 00
0,697,0:04.265.863,255.500 us,5 B,,Transaction,01FF 4273 005A 00FF 00FF
1,698,0:04.265.863,255.500 us,5 B,,   MOSI,01 42 00 00 00
1,699,0:04.265.863,255.500 us,5 B,,   MISO,FF 73 5A FF FF
0,700,0:04.282.551,291.900 us,9 B,,Transaction,01FF 4273 005A 00FF 00FF 0080 0080 0080 0080
1,701,0:04.282.551,291.900 us,9 B,,   MOSI,01 42 00 00 00 00 00 00 00
1,702,0:04.282.551,291.900 us,9 B,,   MISO,FF 73 5A FF FF 80 80 80 80
0,703,0:04.299.237,291.200 us,9 B,,Transaction,01FF 4273 005A 00FF 00FF 0080 0080 0080 0080
1,704,0:04.299.237,291.200 us,9 B,,   MOSI,01 42 00 00 00 00 00 00 00
1,705,0:04.299.237,291.200 us,9 B,,   MISO,FF 73 5A FF FF 80 80 80 80
0,706,0:04.315.926,290.700 us,9 B,,Transaction,01FF 4273 005A 00FF 00FF 0080 0080 0080 0080
1,707,0:04.315.926,290.700 us,9 B,,   MOSI,01 42 00 00 00 00 00 00 00
1,708,0:04.315.926,290.700 us,9 B,,   MISO,FF 73 5A FF FF 80 80 80 80
0,709,0:04.332.607,292.300 us,9 B,,Transaction,01FF 4373 005A 01FF 00FF 0080 0080 0080 0080
1,710,0:04.332.607,292.300 us,9 B,,   MOSI,01 43 00 01 00 00 00 00 00
1,711,0:04.332.607,292.300 us,9 B,,   MISO,FF 73 5A FF FF 80 80 80 80
0,712,0:04.349.607,453.900 us,9 B,,Transaction,01FF 4DF3 005A 0000 0101 FFFF FFFF FFFF FFFF
1,713,0:04.349.607,453.900 us,9 B,,   MOSI,01 4D 00 00 01 FF FF FF FF
1,714,0:04.349.607,453.900 us,9 B,,   MISO,FF F3 5A 00 01 FF FF FF FF
0,715,0:04.365.977,454.800 us,9 B,,Transaction,01FF 43F3 005A 0000 5A00 5A00 5A00 5A00 5A00
1,716,0:04.365.977,454.800 us,9 B,,   MOSI,01 43 00 00 5A 5A 5A 5A 5A
1,717,0:04.365.977,454.800 us,9 B,,   MISO,FF F3 5A 00 00 00 00 00 00
0,718,0:04.382.663,291.000 us,9 B,,Transaction,01FF 4273 005A 00FF 00FF 0080 0080 0080 0080
1,719,0:04.382.663,291.000 us,9 B,,   MOSI,01 42 00 00 00 00 00 00 00
1,720,0:04.382.663,291.000 us,9 B,,   MISO,FF 73 5A FF FF 80 80 80 80
0,721,0:04.399.348,291.700 us,9 B,,Transaction,01FF 4273 005A 00FF 00FF 0080 0080 0080 0080
1,722,0:04.399.348,291.700 us,9 B,,   MOSI,01 42 00 00 00 00 00 00 00
1,723,0:04.399.348,291.700 us,9 B,,   MISO,FF 73 5A FF FF 80 80 80 80
0,724,0:04.416.125,292.000 us,9 B,,Transaction,01FF 4273 005A 00FF 00FF 0080 0080 0080 0080
1,725,0:04.416.125,292.000 us,9 B,,   MOSI,01 42 00 00 00 00 00 00 00
1,726,0:04.416.125,292.000 us,9 B,,   MISO,FF 73 5A FF FF 80 80 80 80
0,727,0:04.432.718,291.600 us,9 B,,Transaction,01FF 4373 005A 01FF 00FF 0080 0080 0080 0080
1,728,0:04.432.718,291.600 us,9 B,,   MOSI,01 43 00 01 00 00 00 00 00
1,729,0:04.432.718,291.600 us,9 B,,   MISO,FF 73 5A FF FF 80 80 80 80
0,730,0:04.449.403,454.200 us,9 B,,Transaction,01FF 4FF3 005A FF00 FF00 0300 0000 0000 005A
1,731,0:04.449.403,454.200 us,9 B,,   MOSI,01 4F 00 FF FF 03 00 00 00
1,732,0:04.449.403,454.200 us,9 B,,   MISO,FF F3 5A 00 00 00 00 00 5A
0,733,0:04.466.088,453.700 us,9 B,,Transaction,01FF 40F3 005A 0000 0200 0002 0000 0000 005A
1,734,0:04.466.088,453.700 us,9 B,,   MOSI,01 40 00 00 02 00 00 00 00
1,735,0:04.466.088,453.700 us,9 B,,   MISO,FF F3 5A 00 00 02 00 00 5A
0,736,0:04.482.777,453.900 us,9 B,,Transaction,01FF 40F3 005A 0100 0200 0002 0000 0000 005A
1,737,0:04.482.777,453.900 us,9 B,,   MOSI,01 40 00 01 02 00 00 00 00
1,738,0:04.482.777,453.900 us,9 B,,   MISO,FF F3 5A 00 00 02 00 00 5A
0,739,0:04.499.459,453.400 us,9 B,,Transaction,01FF 40F3 005A 0200 0200 0002 0000 0000 005A
1,740,0:04.499.459,453.400 us,9 B,,   MOSI,01 40 00 02 02 00 00 00 00
1,741,0:04.499.459,453.400 us,9 B,,   MISO,FF F3 5A 00 00 02 00 00 5A
0,742,0:04.516.145,453.800 us,9 B,,Transaction,01FF 40F3 005A 0300 0200 0002 0000 0000 005A
1,743,0:04.516.145,453.800 us,9 B,,   MOSI,01 40 00 03 02 00 00 00 00
1,744,0:04.516.145,453.800 us,9 B,,   MISO,FF F3 5A 00 00 02 00 00 5A
0,745,0:04.532.831,453.400 us,9 B,,Transaction,01FF 40F3 005A 0400 0200 0002 0000 0000 005A
1,746,0:04.532.831,453.400 us,9 B,,   MOSI,01 40 00 04 02 00 00 00 00
1,747,0:04.532.831,453.400 us,9 B,,   MISO,FF F3 5A 00 00 02 00 00 5A
0,748,0:04.549.515,454.200 us,9 B,,Transaction,01FF 40F3 005A 0500 0200 0002 0000 0000 005A
1,749,0:04.549.515,454.200 us,9 B,,   MOSI,01 40 00 05 02 00 00 00 00
1,750,0:04.549.515,454.200 us,9 B,,   MISO,FF F3 5A 00 00 02 00 00 5A
0,751,0:04.566.201,455.000 us,9 B,,Transaction,01FF 40F3 005A 0600 0200 0002 0000 0000 005A
1,752,0:04.566.201,455.000 us,9 B,,   MOSI,01 40 00 06 02 00 00 00 00
1,753,0:04.566.201,455.000 us,9 B,,   MISO,FF F3 5A 00 00 02 00 00 5A
0,754,0:04.582.886,453.700 us,9 B,,Transaction,01FF 40F3 005A 0700 0200 0002 0000 0000 005A
1,755,0:04.582.886,453.700 us,9 B,,   MOSI,01 40 00 07 02 00 00 00 00
1,756,0:04.582.886,453.700 us,9 B,,   MISO,FF F3 5A 00 00 02 00 00 5A
0,757,0:04.599.949,454.700 us,9 B,,Transaction,01FF 40F3 005A 0800 0200 0002 0000 0000 005A
1,758,0:04.599.949,454.700 us,9 B,,   MOSI,01 40 00 08 02 00 00 00 00
1,759,0:04.599.949,454.700 us,9 B,,   MISO,FF F3 5A 00 00 02 00 00 5A
0,760,0:04.616.257,453.600 us,9 B,,Transaction,01FF 40F3 005A 0900 0200 0002 0000 0000 005A
1,761,0:04.616.257,453.600 us,9 B,,   MOSI,01 40 00 09 02 00 00 00 00
1,762,0:04.616.257,453.600 us,9 B,,   MISO,FF F3 5A 00 00 02 00 00 5A
0,763,0:04.632.943,453.600 us,9 B,,Transaction,01FF 40F3 005A 0A00 0200 0002 0000 0000 005A
1,764,0:04.632.943,453.600 us,9 B,,   MOSI,01 40 00 0A 02 00 00 00 00
1,765,0:04.632.943,453.600 us,9 B,,   MISO,FF F3 5A 00 00 02 00 00 5A
0,766,0:04.649.626,454.400 us,9 B,,Transaction,01FF 40F3 005A 0B00 0200 0002 0000 0000 005A
1,767,0:04.649.626,454.400 us,9 B,,   MOSI,01 40 00 0B 02 00 00 00 00
1,768,0:04.649.626,454.400 us,9 B,,   MISO,FF F3 5A 00 00 02 00 00 5A
0,769,0:04.666.586,454.300 us,9 B,,Transaction,01FF 43F3 005A 0000 5A00 5A00 5A00 5A00 5A00
1,770,0:04.666.586,454.300 us,9 B,,   MOSI,01 43 00 00 5A 5A 5A 5A 5A
1,771,0:04.666.586,454.300 us,9 B,,   MISO,FF F3 5A 00 00 00 00 00 00
0,772,0:04.682.996,290.500 us,9 B,,Transaction,01FF 4279 005A 00FF 00FF 0080 0080 0080 0080
1,773,0:04.682.996,290.500 us,9 B,,   MOSI,01 42 00 00 00 00 00 00 00
1,774,0:04.682.996,290.500 us,9 B,,   MISO,FF 79 5A FF FF 80 80 80 80
0,775,0:04.699.676,255.800 us,5 B,,Transaction,01FF 4279 005A 00FF 00FF
1,776,0:04.699.676,255.800 us,5 B,,   MOSI,01 42 00 00 00
1,777,0:04.699.676,255.800 us,5 B,,   MISO,FF 79 5A FF FF
0,778,0:04.716.380,1.047.000 ms,21 B,,Transaction,01FF 4379 005A 01FF 00FF 0080 0080 0080 0080 0000 0000 0000 0000 0000 0000 0000 0000 0000 0000 0000 0000
1,779,0:04.716.380,1.047.000 ms,21 B,,   MOSI,01 43 00 01 00 00 00 00 00 00 00 00 00 00 00 00 00 00 00 00 00
1,780,0:04.716.380,1.047.000 ms,21 B,,   MISO,FF 79 5A FF FF 80 80 80 80 00 00 00 00 00 00 00 00 00 00 00 00
0,781,0:04.733.053,453.800 us,9 B,,Transaction,01FF 45F3 005A 5A03 5A02 5A01 5A02 5A01 5A00
1,782,0:04.733.053,453.800 us,9 B,,   MOSI,01 45 00 5A 5A 5A 5A 5A 5A
1,783,0:04.733.053,453.800 us,9 B,,   MISO,FF F3 5A 03 02 01 02 01 00
0,784,0:04.749.736,453.300 us,9 B,,Transaction,01FF 46F3 005A 0000 5A00 5A01 5A02 5A00 5A0F
1,785,0:04.749.736,453.300 us,9 B,,   MOSI,01 46 00 00 5A 5A 5A 5A 5A
1,786,0:04.749.736,453.300 us,9 B,,   MISO,FF F3 5A 00 00 01 02 00 0F
0,787,0:04.766.423,453.900 us,9 B,,Transaction,01FF 46F3 005A 0100 5A00 5A01 5A01 5A01 5A0F
1,788,0:04.766.423,453.900 us,9 B,,   MOSI,01 46 00 01 5A 5A 5A 5A 5A
1,789,0:04.766.423,453.900 us,9 B,,   MISO,FF F3 5A 00 00 01 01 01 0F
0,790,0:04.783.103,453.800 us,9 B,,Transaction,01FF 47F3 005A 0000 5A00 5A02 5A00 5A01 5A00
1,791,0:04.783.103,453.800 us,9 B,,   MOSI,01 47 00 00 5A 5A 5A 5A 5A
1,792,0:04.783.103,453.800 us,9 B,,   MISO,FF F3 5A 00 00 02 00 01 00
0,793,0:04.799.792,454.800 us,9 B,,Transaction,01FF 4CF3 005A 0000 5A00 5A00 5A04 5A00 5A00
1,794,0:04.799.792,454.800 us,9 B,,   MOSI,01 4C 00 00 5A 5A 5A 5A 5A
1,795,0:04.799.792,454.800 us,9 B,,   MISO,FF F3 5A 00 00 00 04 00 00
0,796,0:04.816.480,453.900 us,9 B,,Transaction,01FF 4CF3 005A 0100 5A00 5A00 5A07 5A00 5A00
1,797,0:04.816.480,453.900 us,9 B,,   MOSI,01 4C 00 01 5A 5A 5A 5A 5A
1,798,0:04.816.480,453.900 us,9 B,,   MISO,FF F3 5A 00 00 00 07 00 00
0,799,0:04.833.164,453.600 us,9 B,,Transaction,01FF 4DF3 005A 0000 0101 FFFF FFFF FFFF FFFF
1,800,0:04.833.164,453.600 us,9 B,,   MOSI,01 4D 00 00 01 FF FF FF FF
1,801,0:04.833.164,453.600 us,9 B,,   MISO,FF F3 5A 00 01 FF FF FF FF
0,802,0:04.849.848,454.300 us,9 B,,Transaction,01FF 41F3 005A 5AFF 5AFF 5A03 5A00 5A00 5A5A
1,803,0:04.849.848,454.300 us,9 B,,   MOSI,01 41 00 5A 5A 5A 5A 5A 5A
1,804,0:04.849.848,454.300 us,9 B,,   MISO,FF F3 5A FF FF 03 00 00 5A
0,805,0:04.866.534,453.900 us,9 B,,Transaction,01FF 43F3 005A 0000 5A00 5A00 5A00 5A00 5A00
1,806,0:04.866.534,453.900 us,9 B,,   MOSI,01 43 00 00 5A 5A 5A 5A 5A
1,807,0:04.866.534,453.900 us,9 B,,   MISO,FF F3 5A 00 00 00 00 00 00
0,808,0:04.883.216,255.800 us,5 B,,Transaction,01FF 4279 005A 00FF 00FF
1,809,0:04.883.216,255.800 us,5 B,,   MOSI,01 42 00 00 00
1,810,0:04.883.216,255.800 us,5 B,,   MISO,FF 79 5A FF FF
0,811,0:04.899.920,671.800 us,21 B,,Transaction,01FF 4279 005A 00FF 00FF 0080 0080 0080 0080 0000 0000 0000 0000 0000 0000 0000 0000 0000 0000 0000 0000
1,812,0:04.899.920,671.800 us,21 B,,   MOSI,01 42 00 00 00 00 00 00 00 00 00 00 00 00 00 00 00 00 00 00 00
1,813,0:04.899.920,671.800 us,21 B,,   MISO,FF 79 5A FF FF 80 80 80 80 00 00 00 00 00 00 00 00 00 00 00 00
0,814,0:04.916.977,671.700 us,21 B,,Transaction,01FF 4279 005A 00FF 00FF 0080 0080 0080 0080 0000 0000 0000 0000 0000 0000 0000 0000 0000 0000 0000 0000
1,815,0:04.916.977,671.700 us,21 B,,   MOSI,01 42 00 00 00 00 00 00 00 00 00 00 00 00 00 00 00 00 00 00 00
1,816,0:04.916.977,671.700 us,21 B,,   MISO,FF 79 5A FF FF 80 80 80 80 00 00 00 00 00 00 00 00 00 00 00 00
0,817,0:04.933.291,670.500 us,21 B,,Transaction,01FF 4279 005A 00FF 00FF 0080 0080 0080 0080 0000 0000 0000 0000 0000 0000 0000 0000 0000 0000 0000 0000
1,818,0:04.933.291,670.500 us,21 B,,   MOSI,01 42 00 00 00 00 00 00 00 00 00 00 00 00 00 00 00 00 00 00 00
1,819,0:04.933.291,670.500 us,21 B,,   MISO,FF 79 5A FF FF 80 80 80 80 00 00 00 00 00 00 00 00 00 00 00 00
0,820,0:04.949.977,670.500 us,21 B,,Transaction,01FF 4279 005A 00FF 00FF 0080 0080 0080 0080 0000 0000 0000 0000 0000 0000 0000 0000 0000 0000 0000 0000
1,821,0:04.949.977,670.500 us,21 B,,   MOSI,01 42 00 00 00 00 00 00 00 00 00 00 00 00 00 00 00 00 00 00 00
1,822,0:04.949.977,670.500 us,21 B,,   MISO,FF 79 5A FF FF 80 80 80 80 00 00 00 00 00 00 00 00 00 00 00 00
0,823,0:04.966.659,671.700 us,21 B,,Transaction,01FF 4279 005A 00FF 00FF 0080 0080 0080 0080 0000 0000 0000 0000 0000 0000 0000 0000 0000 0000 0000 0000
1,824,0:04.966.659,671.700 us,21 B,,   MOSI,01 42 00 00 00 00 00 00 00 00 00 00 00 00 00 00 00 00 00 00 00
1,825,0:04.966.659,671.700 us,21 B,,   MISO,FF 79 5A FF FF 80 80 80 80 00 00 00 00 00 00 00 00 00 00 00 00
0,826,0:04.983.532,671.800 us,21 B,,Transaction,01FF 4279 005A 00FF 00FF 0080 0080 0080 0080 0000 0000 0000 0000 0000 0000 0000 0000 0000 0000 0000 0000
1,827,0:04.983.532,671.800 us,21 B,,   MOSI,01 42 00 00 00 00 00 00 00 00 00 00 00 00 00 00 00 00 00 00 00
1,828,0:04.983.532,671.800 us,21 B,,   MISO,FF 79 5A FF FF 80 80 80 80 00 00 00 00 00 00 00 00 00 00 00 00
0,829,0:05.000.031,671.300 us,21 B,,Transaction,01FF 4279 005A 00FF 00FF 0080 0080 0080 0080 0000 0000 0000 0000 0000 0000 0000 0000 0000 0000 0000 0000
1,830,0:05.000.031,671.300 us,21 B,,   MOSI,01 42 00 00 00 00 00 00 00 00 00 00 00 00 00 00 00 00 00 00 00
1,831,0:05.000.031,671.300 us,21 B,,   MISO,FF 79 5A FF FF 80 80 80 80 00 00 00 00 00 00 00 00 00 00 00 00
0,832,0:05.016.713,671.000 us,21 B,,Transaction,01FF 4279 005A 00FF 00FF 0080 0080 0080 0080 0000 0000 0000 0000 0000 0000 0000 0000 0000 0000 0000 0000
1,833,0:05.016.713,671.000 us,21 B,,   MOSI,01 42 00 00 00 00 00 00 00 00 00 00 00 00 00 00 00 00 00 00 00
1,834,0:05.016.713,671.000 us,21 B,,   MISO,FF 79 5A FF FF 80 80 80 80 00 00 00 00 00 00 00 00 00 00 00 00
0,835,0:05.033.399,670.500 us,21 B,,Transaction,01FF 4279 005A 00FF 00FF 0080 0080 0080 0080 0000 0000 0000 0000 0000 0000 0000 0000 0000 0000 0000 0000
1,836,0:05.033.399,670.500 us,21 B,,   MOSI,01 42 00 00 00 00 00 00 00 00 00 00 00 00 00 00 00 00 00 00 00
1,837,0:05.033.399,670.500 us,21 B,,   MISO,FF 79 5A FF FF 80 80 80 80 00 00 00 00 00 00 00 00 00 00 00 00
0,838,0:05.050.086,671.600 us,21 B,,Transaction,01FF 4279 005A 00FF 00FF 0080 0080 0080 0080 0000 0000 0000 0000 0000 0000 0000 0000 0000 0000 0000 0000
1,839,0:05.050.086,671.600 us,21 B,,   MOSI,01 42 00 00 00 00 00 00 00 00 00 00 00 00 00 00 00 00 00 00 00
1,840,0:05.050.086,671.600 us,21 B,,   MISO,FF 79 5A FF FF 80 80 80 80 00 00 00 00 00 00 00 00 00 00 00 00
0,841,0:05.066.769,670.000 us,21 B,,Transaction,01FF 4279 005A 00FF 00FF 0080 0080 0080 0080 0000 0000 0000 0000 0000 0000 0000 0000 0000 0000 0000 0000
1,842,0:05.066.769,670.000 us,21 B,,   MOSI,01 42 00 00 00 00 00 00 00 00 00 00 00 00 00 00 00 00 00 00 00
1,843,0:05.066.769,670.000 us,21 B,,   MISO,FF 79 5A FF FF 80 80 80 80 00 00 00 00 00 00 00 00 00 00 00 00
0,844,0:05.083.455,671.600 us,21 B,,Transaction,01FF 4279 005A 00FF 00FF 0080 0080 0080 0080 0000 0000 0000 0000 0000 0000 0000 0000 0000 0000 0000 0000
1,845,0:05.083.455,671.600 us,21 B,,   MOSI,01 42 00 00 00 00 00 00 00 00 00 00 00 00 00 00 00 00 00 00 00
1,846,0:05.083.455,671.600 us,21 B,,   MISO,FF 79 5A FF FF 80 80 80 80 00 00 00 00 00 00 00 00 00 00 00 00
0,847,0:05.100.141,671.600 us,21 B,,Transaction,01FF 4279 005A 00FF 00FF 0080 0080 0080 0080 0000 0000 0000 0000 0000 0000 0000 0000 0000 0000 0000 0000
1,848,0:05.100.141,671.600 us,21 B,,   MOSI,01 42 00 00 00 00 00 00 00 00 00 00 00 00 00 00 00 00 00 00 00
1,849,0:05.100.141,671.600 us,21 B,,   MISO,FF 79 5A FF FF 80 80 80 80 00 00 00 00 00 00 00 00 00 00 00 00
0,850,0:05.116.829,671.600 us,21 B,,Transaction,01FF 4279 005A 00FF 00FF 0080 0080 0080 0080 0000 0000 0000 0000 0000 0000 0000 0000 0000 0000 0000 0000
1,851,0:05.116.829,671.600 us,21 B,,   MOSI,01 42 00 00 00 00 00 00 00 00 00 00 00 00 00 00 00 00 00 00 00
1,852,0:05.116.829,671.600 us,21 B,,   MISO,FF 79 5A FF FF 80 80 80 80 00 00 00 00 00 00 00 00 00 00 00 00
0,853,0:05.133.509,671.100 us,21 B,,Transaction,01FF 4279 005A 00FF 00FF 0080 0080 0080 0080 0000 0000 0000 0000 0000 0000 0000 0000 0000 0000 0000 0000
1,854,0:05.133.509,671.100 us,21 B,,   MOSI,01 42 00 00 00 00 00 00 00 00 00 00 00 00 00 00 00 00 00 00 00
1,855,0:05.133.509,671.100 us,21 B,,   MISO,FF 79 5A FF FF 80 80 80 80 00 00 00 00 00 00 00 00 00 00 00 00
0,856,0:05.150.196,671.900 us,21 B,,Transaction,01FF 4279 005A 00FF 00FF 0080 0080 0080 0080 0000 0000 0000 0000 0000 0000 0000 0000 0000 0000 0000 0000
1,857,0:05.150.196,671.900 us,21 B,,   MOSI,01 42 00 00 00 00 00 00 00 00 00 00 00 00 00 00 00 00 00 00 00
1,858,0:05.150.196,671.900 us,21 B,,   MISO,FF 79 5A FF FF 80 80 80 80 00 00 00 00 00 00 00 00 00 00 00 00
0,859,0:05.166.884,671.700 us,21 B,,Transaction,01FF 4279 005A 00FF 00FF 0080 0080 0080 0080 0000 0000 0000 0000 0000 0000 0000 0000 0000 0000 0000 0000
1,860,0:05.166.884,671.700 us,21 B,,   MOSI,01 42 00 00 00 00 00 00 00 00 00 00 00 00 00 00 00 00 00 00 00
1,861,0:05.166.884,671.700 us,21 B,,   MISO,FF 79 5A FF FF 80 80 80 80 00 00 00 00 00 00 00 00 00 00 00 00
0,862,0:05.183.569,671.400 us,21 B,,Transaction,01FF 4279 005A 00FF 00FF 0080 0080 0080 0080 0000 0000 0000 0000 0000 0000 0000 0000 0000 0000 0000 0000
1,863,0:05.183.569,671.400 us,21 B,,   MOSI,01 42 00 00 00 00 00 00 00 00 00 00 00 00 00 00 00 00 00 00 00
1,864,0:05.183.569,671.400 us,21 B,,   MISO,FF 79 5A FF FF 80 80 80 80 00 00 00 00 00 00 00 00 00 00 00 00
0,865,0:05.200.251,670.800 us,21 B,,Transaction,01FF 4279 005A 00FF 00FF 0080 0080 0080 0080 0000 0000 0000 0000 0000 0000 0000 0000 0000 0000 0000 0000
1,866,0:05.200.251,670.800 us,21 B,,   MOSI,01 42 00 00 00 00 00 00 00 00 00 00 00 00 00 00 00 00 00 00 00
1,867,0:05.200.251,670.800 us,21 B,,   MISO,FF 79 5A FF FF 80 80 80 80 00 00 00 00 00 00 00 00 00 00 00 00
0,868,0:05.216.936,671.000 us,21 B,,Transaction,01FF 4279 005A 00FF 00FF 0080 0080 0080 0080 0000 0000 0000 0000 0000 0000 0000 0000 0000 0000 0000 0000
1,869,0:05.216.936,671.000 us,21 B,,   MOSI,01 42 00 00 00 00 00 00 00 00 00 00 00 00 00 00 00 00 00 00 00
1,870,0:05.216.936,671.000 us,21 B,,   MISO,FF 79 5A FF FF 80 80 80 80 00 00 00 00 00 00 00 00 00 00 00 00
0,871,0:05.233.977,671.200 us,21 B,,Transaction,01FF 4279 005A 00FF 00FF 0080 0080 0080 0080 0000 0000 0000 0000 0000 0000 0000 0000 0000 0000 0000 0000
1,872,0:05.233.977,671.200 us,21 B,,   MOSI,01 42 00 00 00 00 00 00 00 00 00 00 00 00 00 00 00 00 00 00 00
1,873,0:05.233.977,671.200 us,21 B,,   MISO,FF 79 5A FF FF 80 80 80 80 00 00 00 00 00 00 00 00 00 00 00 00
0,874,0:05.250.308,670.100 us,21 B,,Transaction,01FF 4279 005A 00FF 00FF 0080 0080 0080 0080 0000 0000 0000 0000 0000 0000 0000 0000 0000 0000 0000 0000
1,875,0:05.250.308,670.100 us,21 B,,   MOSI,01 42 00 00 00 00 00 00 00 00 00 00 00 00 00 00 00 00 00 00 00
