# Total Phase Data Center(tm) v5.00
# (c) 2005-2010 Total Phase, Inc.
# www.totalphase.com
#
# 
#
# Level,Index,m:s.ms.us,Dur,Len,Err,Record,Data
0,0,0:00.000.000,,,,Capture started,[12/13/10 23:18:43]
0,1,0:00.000.102,314.470.400 ms,0 B,TM,Transaction,
1,2,0:00.000.102,314.470.400 ms,0 B,TM,   MOSI,
1,3,0:00.000.102,314.470.400 ms,0 B,TM,   MISO,
0,4,0:07.470.601,566.500 us,5 B,,Transaction,01FF 4341 005A 01FF 00FF
1,5,0:07.470.601,566.500 us,5 B,,   MOSI,01 43 00 01 00
1,6,0:07.470.601,566.500 us,5 B,,   MISO,FF 41 5A FF FF
0,7,0:07.486.604,1.449.500 ms,9 B,,Transaction,01FF 45F3 005A 5A03 5A02 5A00 5A02 5A01 5A00
1,8,0:07.486.604,1.449.500 ms,9 B,,   MOSI,01 45 00 5A 5A 5A 5A 5A 5A
1,9,0:07.486.604,1.449.500 ms,9 B,,   MISO,FF F3 5A 03 02 00 02 01 00
0,10,0:07.502.608,1.448.200 ms,9 B,,Transaction,01FF 4DF3 005A 00FF 01FF FFFF FFFF FFFF FFFF
1,11,0:07.502.608,1.448.200 ms,9 B,,   MOSI,01 4D 00 00 01 FF FF FF FF
1,12,0:07.502.608,1.448.200 ms,9 B,,   MISO,FF F3 5A FF FF FF FF FF FF
0,13,0:07.518.619,1.450.000 ms,9 B,,Transaction,01FF 43F3 005A 0000 5A00 5A00 5A00 5A00 5A00
1,14,0:07.518.619,1.450.000 ms,9 B,,   MOSI,01 43 00 00 5A 5A 5A 5A 5A
1,15,0:07.518.619,1.450.000 ms,9 B,,   MISO,FF F3 5A 00 00 00 00 00 00
0,16,0:07.534.623,567.700 us,5 B,,Transaction,01FF 4341 005A 01FF 00FF
1,17,0:07.534.623,567.700 us,5 B,,   MOSI,01 43 00 01 00
1,18,0:07.534.623,567.700 us,5 B,,   MISO,FF 41 5A FF FF
0,19,0:07.550.627,1.452.300 ms,9 B,,Transaction,01FF 44F3 005A 0100 0200 0000 0000 0000 0000
1,20,0:07.550.627,1.452.300 ms,9 B,,   MOSI,01 44 00 01 02 00 00 00 00
1,21,0:07.550.627,1.452.300 ms,9 B,,   MISO,FF F3 5A 00 00 00 00 00 00
0,22,0:07.566.634,1.450.000 ms,9 B,,Transaction,01FF 43F3 005A 0000 5A00 5A00 5A00 5A00 5A00
1,23,0:07.566.634,1.450.000 ms,9 B,,   MOSI,01 43 00 00 5A 5A 5A 5A 5A
1,24,0:07.566.634,1.450.000 ms,9 B,,   MISO,FF F3 5A 00 00 00 00 00 00
0,25,0:07.582.639,907.600 us,9 B,,Transaction,01FF 4373 005A 01FF 00FF 0080 0080 0080 0080
1,26,0:07.582.639,907.600 us,9 B,,   MOSI,01 43 00 01 00 00 00 00 00
1,27,0:07.582.639,907.600 us,9 B,,   MISO,FF 73 5A FF FF 80 80 80 80
0,28,0:07.598.644,1.448.300 ms,9 B,,Transaction,01FF 4DF3 005A 00FF 01FF FFFF FFFF FFFF FFFF
1,29,0:07.598.644,1.448.300 ms,9 B,,   MOSI,01 4D 00 00 01 FF FF FF FF
1,30,0:07.598.644,1.448.300 ms,9 B,,   MISO,FF F3 5A FF FF FF FF FF FF
0,31,0:07.614.647,1.450.000 ms,9 B,,Transaction,01FF 43F3 005A 0000 5A00 5A00 5A00 5A00 5A00
1,32,0:07.614.647,1.450.000 ms,9 B,,   MOSI,01 43 00 00 5A 5A 5A 5A 5A
1,33,0:07.614.647,1.450.000 ms,9 B,,   MISO,FF F3 5A 00 00 00 00 00 00
0,34,0:07.630.660,907.100 us,9 B,,Transaction,01FF 4373 005A 01FF 00FF 0080 0080 0080 0080
1,35,0:07.630.660,907.100 us,9 B,,   MOSI,01 43 00 01 00 00 00 00 00
1,36,0:07.630.660,907.100 us,9 B,,   MISO,FF 73 5A FF FF 80 80 80 80
0,37,0:07.646.665,1.450.000 ms,9 B,,Transaction,01FF 4FF3 005A FF00 FF00 0300 0000 0000 005A
1,38,0:07.646.665,1.450.000 ms,9 B,,   MOSI,01 4F 00 FF FF 03 00 00 00
1,39,0:07.646.665,1.450.000 ms,9 B,,   MISO,FF F3 5A 00 00 00 00 00 5A
0,40,0:07.662.669,1.443.600 ms,9 B,,Transaction,01FF 40F3 005A 0000 0200 0002 0000 0000 005A
1,41,0:07.662.669,1.443.600 ms,9 B,,   MOSI,01 40 00 00 02 00 00 00 00
1,42,0:07.662.669,1.443.600 ms,9 B,,   MISO,FF F3 5A 00 00 02 00 00 5A
0,43,0:07.678.675,1.442.700 ms,9 B,,Transaction,01FF 40F3 005A FF00 0200 00FF 0000 0000 00FF
1,44,0:07.678.675,1.442.700 ms,9 B,,   MOSI,01 40 00 FF 02 00 00 00 00
1,45,0:07.678.675,1.442.700 ms,9 B,,   MISO,FF F3 5A 00 00 FF 00 00 FF
0,46,0:07.694.681,1.442.700 ms,9 B,,Transaction,01FF 40F3 005A FE00 0200 00FF 0000 0000 00FF
1,47,0:07.694.681,1.442.700 ms,9 B,,   MOSI,01 40 00 FE 02 00 00 00 00
1,48,0:07.694.681,1.442.700 ms,9 B,,   MISO,FF F3 5A 00 00 FF 00 00 FF
0,49,0:07.710.686,1.442.700 ms,9 B,,Transaction,01FF 40F3 005A FD00 0200 00FF 0000 0000 00FF
1,50,0:07.710.686,1.442.700 ms,9 B,,   MOSI,01 40 00 FD 02 00 00 00 00
1,51,0:07.710.686,1.442.700 ms,9 B,,   MISO,FF F3 5A 00 00 FF 00 00 FF
0,52,0:07.726.691,1.442.900 ms,9 B,,Transaction,01FF 40F3 005A FC00 0200 00FF 0000 0000 00FF
1,53,0:07.726.691,1.442.900 ms,9 B,,   MOSI,01 40 00 FC 02 00 00 00 00
1,54,0:07.726.691,1.442.900 ms,9 B,,   MISO,FF F3 5A 00 00 FF 00 00 FF
0,55,0:07.742.696,1.442.800 ms,9 B,,Transaction,01FF 40F3 005A FB00 0200 00FF 0000 0000 00FF
1,56,0:07.742.696,1.442.800 ms,9 B,,   MOSI,01 40 00 FB 02 00 00 00 00
1,57,0:07.742.696,1.442.800 ms,9 B,,   MISO,FF F3 5A 00 00 FF 00 00 FF
0,58,0:07.758.703,1.442.800 ms,9 B,,Transaction,01FF 40F3 005A FA00 0200 00FF 0000 0000 00FF
1,59,0:07.758.703,1.442.800 ms,9 B,,   MOSI,01 40 00 FA 02 00 00 00 00
1,60,0:07.758.703,1.442.800 ms,9 B,,   MISO,FF F3 5A 00 00 FF 00 00 FF
0,61,0:07.774.711,1.442.800 ms,9 B,,Transaction,01FF 40F3 005A F900 0200 00FF 0000 0000 00FF
1,62,0:07.774.711,1.442.800 ms,9 B,,   MOSI,01 40 00 F9 02 00 00 00 00
1,63,0:07.774.711,1.442.800 ms,9 B,,   MISO,FF F3 5A 00 00 FF 00 00 FF
0,64,0:07.790.716,1.443.000 ms,9 B,,Transaction,01FF 40F3 005A F800 0200 00FF 0000 0000 00FF
1,65,0:07.790.716,1.443.000 ms,9 B,,   MOSI,01 40 00 F8 02 00 00 00 00
1,66,0:07.790.716,1.443.000 ms,9 B,,   MISO,FF F3 5A 00 00 FF 00 00 FF
0,67,0:07.806.721,1.442.700 ms,9 B,,Transaction,01FF 40F3 005A F700 0200 00FF 0000 0000 00FF
1,68,0:07.806.721,1.442.700 ms,9 B,,   MOSI,01 40 00 F7 02 00 00 00 00
1,69,0:07.806.721,1.442.700 ms,9 B,,   MISO,FF F3 5A 00 00 FF 00 00 FF
0,70,0:07.822.726,1.442.900 ms,9 B,,Transaction,01FF 40F3 005A F600 0200 00FF 0000 0000 00FF
1,71,0:07.822.726,1.442.900 ms,9 B,,   MOSI,01 40 00 F6 02 00 00 00 00
1,72,0:07.822.726,1.442.900 ms,9 B,,   MISO,FF F3 5A 00 00 FF 00 00 FF
0,73,0:07.838.732,1.442.900 ms,9 B,,Transaction,01FF 40F3 005A F500 0200 00FF 0000 0000 00FF
1,74,0:07.838.732,1.442.900 ms,9 B,,   MOSI,01 40 00 F5 02 00 00 00 00
1,75,0:07.838.732,1.442.900 ms,9 B,,   MISO,FF F3 5A 00 00 FF 00 00 FF
0,76,0:07.854.737,1.450.000 ms,9 B,,Transaction,01FF 43F3 005A 0000 5A00 5A00 5A00 5A00 5A00
1,77,0:07.854.737,1.450.000 ms,9 B,,   MOSI,01 43 00 00 5A 5A 5A 5A 5A
1,78,0:07.854.737,1.450.000 ms,9 B,,   MISO,FF F3 5A 00 00 00 00 00 00
0,79,0:07.870.741,1.939.300 ms,21 B,,Transaction,01FF 4379 005A 01FF 00FF 0080 0080 0080 0080 0000 0000 0000 0000 0000 0000 0000 0000 0000 0000 0000 0000
1,80,0:07.870.741,1.939.300 ms,21 B,,   MOSI,01 43 00 01 00 00 00 00 00 00 00 00 00 00 00 00 00 00 00 00 00
1,81,0:07.870.741,1.939.300 ms,21 B,,   MISO,FF 79 5A FF FF 80 80 80 80 00 00 00 00 00 00 00 00 00 00 00 00
0,82,0:07.887.747,1.448.200 ms,9 B,,Transaction,01FF 4DF3 005A 0000 0101 FFFF FFFF FFFF FFFF
1,83,0:07.887.747,1.448.200 ms,9 B,,   MOSI,01 4D 00 00 01 FF FF FF FF
1,84,0:07.887.747,1.448.200 ms,9 B,,   MISO,FF F3 5A 00 01 FF FF FF FF
0,85,0:07.903.758,1.422.200 ms,9 B,,Transaction,01FF 43F3 005A 0000 5A00 5A00 5A00 5A00 5A00
1,86,0:07.903.758,1.422.200 ms,9 B,,   MOSI,01 43 00 00 5A 5A 5A 5A 5A
1,87,0:07.903.758,1.422.200 ms,9 B,,   MISO,FF F3 5A 00 00 00 00 00 00
0,88,0:07.919.758,2.053.200 ms,21 B,,Transaction,01FF 4279 005A 00FF 00FF 0080 0080 0080 0080 0000 0000 0000 0000 0000 0000 0000 0000 0000 0000 0000 0000
1,89,0:07.919.758,2.053.200 ms,21 B,,   MOSI,01 42 00 00 00 00 00 00 00 00 00 00 00 00 00 00 00 00 00 00 00
1,90,0:07.919.758,2.053.200 ms,21 B,,   MISO,FF 79 5A FF FF 80 80 80 80 00 00 00 00 00 00 00 00 00 00 00 00
0,91,0:07.936.768,2.052.800 ms,21 B,,Transaction,01FF 4279 005A 00FF 00FF 0080 0080 0080 0080 0000 0000 0000 0000 0000 0000 0000 0000 0000 0000 0000 0000
1,92,0:07.936.768,2.052.800 ms,21 B,,   MOSI,01 42 00 00 00 00 00 00 00 00 00 00 00 00 00 00 00 00 00 00 00
1,93,0:07.936.768,2.052.800 ms,21 B,,   MISO,FF 79 5A FF FF 80 80 80 80 00 00 00 00 00 00 00 00 00 00 00 00
0,94,0:07.953.777,2.053.600 ms,21 B,,Transaction,01FF 4279 005A 00FF 00FF 0080 0080 0080 0080 0000 0000 0000 0000 0000 0000 0000 0000 0000 0000 0000 0000
1,95,0:07.953.777,2.053.600 ms,21 B,,   MOSI,01 42 00 00 00 00 00 00 00 00 00 00 00 00 00 00 00 00 00 00 00
1,96,0:07.953.777,2.053.600 ms,21 B,,   MISO,FF 79 5A FF FF 80 80 80 80 00 00 00 00 00 00 00 00 00 00 00 00
0,97,0:07.970.779,2.052.800 ms,21 B,,Transaction,01FF 4279 005A 00FF 00FF 0080 0080 0080 0080 0000 0000 0000 0000 0000 0000 0000 0000 0000 0000 0000 0000
1,98,0:07.970.779,2.052.800 ms,21 B,,   MOSI,01 42 00 00 00 00 00 00 00 00 00 00 00 00 00 00 00 00 00 00 00
1,99,0:07.970.779,2.052.800 ms,21 B,,   MISO,FF 79 5A FF FF 80 80 80 80 00 00 00 00 00 00 00 00 00 00 00 00
0,100,0:07.987.788,2.054.000 ms,21 B,,Transaction,01FF 4279 005A 00FF 00FF 0080 0080 0080 0080 0000 0000 0000 0000 0000 0000 0000 0000 0000 0000 0000 0000
1,101,0:07.987.788,2.054.000 ms,21 B,,   MOSI,01 42 00 00 00 00 00 00 00 00 00 00 00 00 00 00 00 00 00 00 00
1,102,0:07.987.788,2.054.000 ms,21 B,,   MISO,FF 79 5A FF FF 80 80 80 80 00 00 00 00 00 00 00 00 00 00 00 00
0,103,0:08.004.790,2.053.500 ms,21 B,,Transaction,01FF 4279 005A 00FF 00FF 0080 0080 0080 0080 0000 0000 0000 0000 0000 0000 0000 0000 0000 0000 0000 0000
1,104,0:08.004.790,2.053.500 ms,21 B,,   MOSI,01 42 00 00 00 00 00 00 00 00 00 00 00 00 00 00 00 00 00 00 00
1,105,0:08.004.790,2.053.500 ms,21 B,,   MISO,FF 79 5A FF FF 80 80 80 80 00 00 00 00 00 00 00 00 00 00 00 00
0,106,0:08.021.800,2.054.400 ms,21 B,,Transaction,01FF 4279 005A 00FF 00FF 0080 0080 0080 0080 0000 0000 0000 0000 0000 0000 0000 0000 0000 0000 0000 0000
1,107,0:08.021.800,2.054.400 ms,21 B,,   MOSI,01 42 00 00 00 00 00 00 00 00 00 00 00 00 00 00 00 00 00 00 00
1,108,0:08.021.800,2.054.400 ms,21 B,,   MISO,FF 79 5A FF FF 80 80 80 80 00 00 00 00 00 00 00 00 00 00 00 00
0,109,0:08.038.803,2.053.500 ms,21 B,,Transaction,01FF 4279 005A 00FF 00FF 0080 0080 0080 0080 0000 0000 0000 0000 0000 0000 0000 0000 0000 0000 0000 0000
1,110,0:08.038.803,2.053.500 ms,21 B,,   MOSI,01 42 00 00 00 00 00 00 00 00 00 00 00 00 00 00 00 00 00 00 00
1,111,0:08.038.803,2.053.500 ms,21 B,,   MISO,FF 79 5A FF FF 80 80 80 80 00 00 00 00 00 00 00 00 00 00 00 00
0,112,0:08.055.812,2.052.800 ms,21 B,,Transaction,01FF 4279 005A 00FF 00FF 0080 0080 0080 0080 0000 0000 0000 0000 0000 0000 0000 0000 0000 0000 0000 0000
1,113,0:08.055.812,2.052.800 ms,21 B,,   MOSI,01 42 00 00 00 00 00 00 00 00 00 00 00 00 00 00 00 00 00 00 00
1,114,0:08.055.812,2.052.800 ms,21 B,,   MISO,FF 79 5A FF FF 80 80 80 80 00 00 00 00 00 00 00 00 00 00 00 00
0,115,0:08.072.821,2.052.700 ms,21 B,,Transaction,01FF 4279 005A 00FF 00FF 0080 0080 0080 0080 0000 0000 0000 0000 0000 0000 0000 0000 0000 0000 0000 0000
1,116,0:08.072.821,2.052.700 ms,21 B,,   MOSI,01 42 00 00 00 00 00 00 00 00 00 00 00 00 00 00 00 00 00 00 00
1,117,0:08.072.821,2.052.700 ms,21 B,,   MISO,FF 79 5A FF FF 80 80 80 80 00 00 00 00 00 00 00 00 00 00 00 00
0,118,0:08.089.822,2.054.200 ms,21 B,,Transaction,01FF 4279 005A 00FF 00FF 0080 0080 0080 0080 0000 0000 0000 0000 0000 0000 0000 0000 0000 0000 0000 0000
1,119,0:08.089.822,2.054.200 ms,21 B,,   MOSI,01 42 00 00 00 00 00 00 00 00 00 00 00 00 00 00 00 00 00 00 00
1,120,0:08.089.822,2.054.200 ms,21 B,,   MISO,FF 79 5A FF FF 80 80 80 80 00 00 00 00 00 00 00 00 00 00 00 00
0,121,0:08.106.833,2.052.900 ms,21 B,,Transaction,01FF 4279 005A 00FF 00FF 0080 0080 0080 0080 0000 0000 0000 0000 0000 0000 0000 0000 0000 0000 0000 0000
1,122,0:08.106.833,2.052.900 ms,21 B,,   MOSI,01 42 00 00 00 00 00 00 00 00 00 00 00 00 00 00 00 00 00 00 00
1,123,0:08.106.833,2.052.900 ms,21 B,,   MISO,FF 79 5A FF FF 80 80 80 80 00 00 00 00 00 00 00 00 00 00 00 00
0,124,0:08.123.834,2.054.400 ms,21 B,,Transaction,01FF 4279 005A 00FF 00FF 0080 0080 0080 0080 0000 0000 0000 0000 0000 0000 0000 0000 0000 0000 0000 0000
1,125,0:08.123.834,2.054.400 ms,21 B,,   MOSI,01 42 00 00 00 00 00 00 00 00 00 00 00 00 00 00 00 00 00 00 00
1,126,0:08.123.834,2.054.400 ms,21 B,,   MISO,FF 79 5A FF FF 80 80 80 80 00 00 00 00 00 00 00 00 00 00 00 00
0,127,0:08.140.845,2.053.200 ms,21 B,,Transaction,01FF 4279 005A 00FF 00FF 0080 0080 0080 0080 0000 0000 0000 0000 0000 0000 0000 0000 0000 0000 0000 0000
1,128,0:08.140.845,2.053.200 ms,21 B,,   MOSI,01 42 00 00 00 00 00 00 00 00 00 00 00 00 00 00 00 00 00 00 00
1,129,0:08.140.845,2.053.200 ms,21 B,,   MISO,FF 79 5A FF FF 80 80 80 80 00 00 00 00 00 00 00 00 00 00 00 00
0,130,0:08.157.846,2.054.500 ms,21 B,,Transaction,01FF 4279 005A 00FF 00FF 0080 0080 0080 0080 0000 0000 0000 0000 0000 0000 0000 0000 0000 0000 0000 0000
1,131,0:08.157.846,2.054.500 ms,21 B,,   MOSI,01 42 00 00 00 00 00 00 00 00 00 00 00 00 00 00 00 00 00 00 00
1,132,0:08.157.846,2.054.500 ms,21 B,,   MISO,FF 79 5A FF FF 80 80 80 80 00 00 00 00 00 00 00 00 00 00 00 00
0,133,0:08.174.857,2.053.300 ms,21 B,,Transaction,01FF 4279 005A 00FF 00FF 0080 0080 0080 0080 0000 0000 0000 0000 0000 0000 0000 0000 0000 0000 0000 0000
1,134,0:08.174.857,2.053.300 ms,21 B,,   MOSI,01 42 00 00 00 00 00 00 00 00 00 00 00 00 00 00 00 00 00 00 00
1,135,0:08.174.857,2.053.300 ms,21 B,,   MISO,FF 79 5A FF FF 80 80 80 80 00 00 00 00 00 00 00 00 00 00 00 00
0,136,0:08.191.859,2.054.300 ms,21 B,,Transaction,01FF 4279 005A 00FF 00FF 0080 0080 0080 0080 0000 0000 0000 0000 0000 0000 0000 0000 0000 0000 0000 0000
1,137,0:08.191.859,2.054.300 ms,21 B,,   MOSI,01 42 00 00 00 00 00 00 00 00 00 00 00 00 00 00 00 00 00 00 00
1,138,0:08.191.859,2.054.300 ms,21 B,,   MISO,FF 79 5A FF FF 80 80 80 80 00 00 00 00 00 00 00 00 00 00 00 00
0,139,0:08.208.869,2.053.500 ms,21 B,,Transaction,01FF 4279 005A 00FF 00FF 0080 0080 0080 0080 0000 0000 0000 0000 0000 0000 0000 0000 0000 0000 0000 0000
1,140,0:08.208.869,2.053.500 ms,21 B,,   MOSI,01 42 00 00 00 00 00 00 00 00 00 00 00 00 00 00 00 00 00 00 00
1,141,0:08.208.869,2.053.500 ms,21 B,,   MISO,FF 79 5A FF FF 80 80 80 80 00 00 00 00 00 00 00 00 00 00 00 00
0,142,0:08.225.871,2.053.000 ms,21 B,,Transaction,01FF 4279 005A 00FF 00FF 0080 0080 0080 0080 0000 0000 0000 0000 0000 0000 0000 0000 0000 0000 0000 0000
1,143,0:08.225.871,2.053.000 ms,21 B,,   MOSI,01 42 00 00 00 00 00 00 00 00 00 00 00 00 00 00 00 00 00 00 00
1,144,0:08.225.871,2.053.000 ms,21 B,,   MISO,FF 79 5A FF FF 80 80 80 80 00 00 00 00 00 00 00 00 00 00 00 00
0,145,0:08.242.880,2.054.400 ms,21 B,,Transaction,01FF 4279 005A 00FF 00FF 0080 0080 0080 0080 0000 0000 0000 0000 0000 0000 0000 0000 0000 0000 0000 0000
1,146,0:08.242.880,2.054.400 ms,21 B,,   MOSI,01 42 00 00 00 00 00 00 00 00 00 00 00 00 00 00 00 00 00 00 00
1,147,0:08.242.880,2.054.400 ms,21 B,,   MISO,FF 79 5A FF FF 80 80 80 80 00 00 00 00 00 00 00 00 00 00 00 00
0,148,0:08.259.883,2.053.900 ms,21 B,,Transaction,01FF 4279 005A 00FF 00FF 0080 0080 0080 0080 0000 0000 0000 0000 0000 0000 0000 0000 0000 0000 0000 0000
1,149,0:08.259.883,2.053.900 ms,21 B,,   MOSI,01 42 00 00 00 00 00 00 00 00 00 00 00 00 00 00 00 00 00 00 00
1,150,0:08.259.883,2.053.900 ms,21 B,,   MISO,FF 79 5A FF FF 80 80 80 80 00 00 00 00 00 00 00 00 00 00 00 00
0,151,0:08.276.893,2.053.100 ms,21 B,,Transaction,01FF 4279 005A 00FF 00FF 0080 0080 0080 0080 0000 0000 0000 0000 0000 0000 0000 0000 0000 0000 0000 0000
1,152,0:08.276.893,2.053.100 ms,21 B,,   MOSI,01 42 00 00 00 00 00 00 00 00 00 00 00 00 00 00 00 00 00 00 00
1,153,0:08.276.893,2.053.100 ms,21 B,,   MISO,FF 79 5A FF FF 80 80 80 80 00 00 00 00 00 00 00 00 00 00 00 00
0,154,0:08.293.902,2.053.200 ms,21 B,,Transaction,01FF 4279 005A 00FF 00FF 0080 0080 0080 0080 0000 0000 0000 0000 0000 0000 0000 0000 0000 0000 0000 0000
1,155,0:08.293.902,2.053.200 ms,21 B,,   MOSI,01 42 00 00 00 00 00 00 00 00 00 00 00 00 00 00 00 00 00 00 00
1,156,0:08.293.902,2.053.200 ms,21 B,,   MISO,FF 79 5A FF FF 80 80 80 80 00 00 00 00 00 00 00 00 00 00 00 00
0,157,0:08.310.904,2.054.300 ms,21 B,,Transaction,01FF 4279 005A 00FF 00FF 0080 0080 0080 0080 0000 0000 0000 0000 0000 0000 0000 0000 0000 0000 0000 0000
1,158,0:08.310.904,2.054.300 ms,21 B,,   MOSI,01 42 00 00 00 00 00 00 00 00 00 00 00 00 00 00 00 00 00 00 00
1,159,0:08.310.904,2.054.300 ms,21 B,,   MISO,FF 79 5A FF FF 80 80 80 80 00 00 00 00 00 00 00 00 00 00 00 00
0,160,0:08.327.915,2.053.000 ms,21 B,,Transaction,01FF 4279 005A 00FF 00FF 0080 0080 0080 0080 0000 0000 0000 0000 0000 0000 0000 0000 0000 0000 0000 0000
1,161,0:08.327.915,2.053.000 ms,21 B,,   MOSI,01 42 00 00 00 00 00 00 00 00 00 00 00 00 00 00 00 00 00 00 00
1,162,0:08.327.915,2.053.000 ms,21 B,,   MISO,FF 79 5A FF FF 80 80 80 80 00 00 00 00 00 00 00 00 00 00 00 00
0,163,0:08.344.916,2.053.900 ms,21 B,,Transaction,01FF 4279 005A 00FF 00FF 0080 0080 0080 0080 0000 0000 0000 0000 0000 0000 0000 0000 0000 0000 0000 0000
1,164,0:08.344.916,2.053.900 ms,21 B,,   MOSI,01 42 00 00 00 00 00 00 00 00 00 00 00 00 00 00 00 00 00 00 00
1,165,0:08.344.916,2.053.900 ms,21 B,,   MISO,FF 79 5A FF FF 80 80 80 80 00 00 00 00 00 00 00 00 00 00 00 00
0,166,0:08.361.926,2.053.400 ms,21 B,,Transaction,01FF 4279 005A 00FF 00FF 0080 0080 0080 0080 0000 0000 0000 0000 0000 0000 0000 0000 0000 0000 0000 0000
1,167,0:08.361.926,2.053.400 ms,21 B,,   MOSI,01 42 00 00 00 00 00 00 00 00 00 00 00 00 00 00 00 00 00 00 00
1,168,0:08.361.926,2.053.400 ms,21 B,,   MISO,FF 79 5A FF FF 80 80 80 80 00 00 00 00 00 00 00 00 00 00 00 00
0,169,0:08.378.928,2.054.000 ms,21 B,,Transaction,01FF 4279 005A 00FF 00FF 0080 0080 0080 0080 0000 0000 0000 0000 0000 0000 0000 0000 0000 0000 0000 0000
1,170,0:08.378.928,2.054.000 ms,21 B,,   MOSI,01 42 00 00 00 00 00 00 00 00 00 00 00 00 00 00 00 00 00 00 00
1,171,0:08.378.928,2.054.000 ms,21 B,,   MISO,FF 79 5A FF FF 80 80 80 80 00 00 00 00 00 00 00 00 00 00 00 00
0,172,0:08.395.938,2.053.600 ms,21 B,,Transaction,01FF 4279 005A 00FF 00FF 0080 0080 0080 0080 0000 0000 0000 0000 0000 0000 0000 0000 0000 0000 0000 0000
1,173,0:08.395.938,2.053.600 ms,21 B,,   MOSI,01 42 00 00 00 00 00 00 00 00 00 00 00 00 00 00 00 00 00 00 00
1,174,0:08.395.938,2.053.600 ms,21 B,,   MISO,FF 79 5A FF FF 80 80 80 80 00 00 00 00 00 00 00 00 00 00 00 00
0,175,0:08.412.940,2.054.600 ms,21 B,,Transaction,01FF 4279 005A 00FF 00FF 0080 0080 0080 0080 0000 0000 0000 0000 0000 0000 0000 0000 0000 0000 0000 0000
1,176,0:08.412.940,2.054.600 ms,21 B,,   MOSI,01 42 00 00 00 00 00 00 00 00 00 00 00 00 00 00 00 00 00 00 00
1,177,0:08.412.940,2.054.600 ms,21 B,,   MISO,FF 79 5A FF FF 80 80 80 80 00 00 00 00 00 00 00 00 00 00 00 00
0,178,0:08.429.951,2.053.600 ms,21 B,,Transaction,01FF 4279 005A 00FF 00FF 0080 0080 0080 0080 0000 0000 0000 0000 0000 0000 0000 0000 0000 0000 0000 0000
1,179,0:08.429.951,2.053.600 ms,21 B,,   MOSI,01 42 00 00 00 00 00 00 00 00 00 00 00 00 00 00 00 00 00 00 00
1,180,0:08.429.951,2.053.600 ms,21 B,,   MISO,FF 79 5A FF FF 80 80 80 80 00 00 00 00 00 00 00 00 00 00 00 00
0,181,0:08.446.953,2.054.700 ms,21 B,,Transaction,01FF 4279 005A 00FF 00FF 0080 0080 0080 0080 0000 0000 0000 0000 0000 0000 0000 0000 0000 0000 0000 0000
1,182,0:08.446.953,2.054.700 ms,21 B,,   MOSI,01 42 00 00 00 00 00 00 00 00 00 00 00 00 00 00 00 00 00 00 00
1,183,0:08.446.953,2.054.700 ms,21 B,,   MISO,FF 79 5A FF FF 80 80 80 80 00 00 00 00 00 00 00 00 00 00 00 00
0,184,0:08.463.964,2.053.500 ms,21 B,,Transaction,01FF 4279 005A 00FF 00FF 0080 0080 0080 0080 0000 0000 0000 0000 0000 0000 0000 0000 0000 0000 0000 0000
1,185,0:08.463.964,2.053.500 ms,21 B,,   MOSI,01 42 00 00 00 00 00 00 00 00 00 00 00 00 00 00 00 00 00 00 00
1,186,0:08.463.964,2.053.500 ms,21 B,,   MISO,FF 79 5A FF FF 80 80 80 80 00 00 00 00 00 00 00 00 00 00 00 00
0,187,0:08.480.965,2.053.000 ms,21 B,,Transaction,01FF 4279 005A 00FF 00FF 0080 0080 0080 0080 0000 0000 0000 0000 0000 0000 0000 0000 0000 0000 0000 0000
1,188,0:08.480.965,2.053.000 ms,21 B,,   MOSI,01 42 00 00 00 00 00 00 00 00 00 00 00 00 00 00 00 00 00 00 00
1,189,0:08.480.965,2.053.000 ms,21 B,,   MISO,FF 79 5A FF FF 80 80 80 80 00 00 00 00 00 00 00 00 00 00 00 00
0,190,0:08.497.975,2.053.500 ms,21 B,,Transaction,01FF 4279 005A 00FF 00FF 0080 0080 0080 0080 0000 0000 0000 0000 0000 0000 0000 0000 0000 0000 0000 0000
1,191,0:08.497.975,2.053.500 ms,21 B,,   MOSI,01 42 00 00 00 00 00 00 00 00 00 00 00 00 00 00 00 00 00 00 00
1,192,0:08.497.975,2.053.500 ms,21 B,,   MISO,FF 79 5A FF FF 80 80 80 80 00 00 00 00 00 00 00 00 00 00 00 00
0,193,0:08.514.977,2.054.500 ms,21 B,,Transaction,01FF 4279 005A 00FF 00FF 0080 0080 0080 0080 0000 0000 0000 0000 0000 0000 0000 0000 0000 0000 0000 0000
1,194,0:08.514.977,2.054.500 ms,21 B,,   MOSI,01 42 00 00 00 00 00 00 00 00 00 00 00 00 00 00 00 00 00 00 00
1,195,0:08.514.977,2.054.500 ms,21 B,,   MISO,FF 79 5A FF FF 80 80 80 80 00 00 00 00 00 00 00 00 00 00 00 00
0,196,0:08.531.987,2.054.000 ms,21 B,,Transaction,01FF 4279 005A 00FF 00FF 0080 0080 0080 0080 0000 0000 0000 0000 0000 0000 0000 0000 0000 0000 0000 0000
1,197,0:08.531.987,2.054.000 ms,21 B,,   MOSI,01 42 00 00 00 00 00 00 00 00 00 00 00 00 00 00 00 00 00 00 00
1,198,0:08.531.987,2.054.000 ms,21 B,,   MISO,FF 79 5A FF FF 80 80 80 80 00 00 00 00 00 00 00 00 00 00 00 00
0,199,0:08.548.990,2.053.100 ms,21 B,,Transaction,01FF 4279 005A 00FF 00FF 0080 0080 0080 0080 0000 0000 0000 0000 0000 0000 0000 0000 0000 0000 0000 0000
1,200,0:08.548.990,2.053.100 ms,21 B,,   MOSI,01 42 00 00 00 00 00 00 00 00 00 00 00 00 00 00 00 00 00 00 00
1,201,0:08.548.990,2.053.100 ms,21 B,,   MISO,FF 79 5A FF FF 80 80 80 80 00 00 00 00 00 00 00 00 00 00 00 00
0,202,0:08.565.999,2.054.000 ms,21 B,,Transaction,01FF 4279 005A 00FF 00FF 0080 0080 0080 0080 0000 0000 0000 0000 0000 0000 0000 0000 0000 0000 0000 0000
1,203,0:08.565.999,2.054.000 ms,21 B,,   MOSI,01 42 00 00 00 00 00 00 00 00 00 00 00 00 00 00 00 00 00 00 00
1,204,0:08.565.999,2.054.000 ms,21 B,,   MISO,FF 79 5A FF FF 80 80 80 80 00 00 00 00 00 00 00 00 00 00 00 00
0,205,0:08.583.001,2.054.600 ms,21 B,,Transaction,01FF 4279 005A 00FF 00FF 0080 0080 0080 0080 0000 0000 0000 0000 0000 0000 0000 0000 0000 0000 0000 0000
1,206,0:08.583.001,2.054.600 ms,21 B,,   MOSI,01 42 00 00 00 00 00 00 00 00 00 00 00 00 00 00 00 00 00 00 00
1,207,0:08.583.001,2.054.600 ms,21 B,,   MISO,FF 79 5A FF FF 80 80 80 80 00 00 00 00 00 00 00 00 00 00 00 00
0,208,0:08.600.012,2.053.600 ms,21 B,,Transaction,01FF 4279 005A 00FF 00FF 0080 0080 0080 0080 0000 0000 0000 0000 0000 0000 0000 0000 0000 0000 0000 0000
1,209,0:08.600.012,2.053.600 ms,21 B,,   MOSI,01 42 00 00 00 00 00 00 00 00 00 00 00 00 00 00 00 00 00 00 00
1,210,0:08.600.012,2.053.600 ms,21 B,,   MISO,FF 79 5A FF FF 80 80 80 80 00 00 00 00 00 00 00 00 00 00 00 00
0,211,0:08.617.014,2.054.800 ms,21 B,,Transaction,01FF 4279 005A 00FF 00FF 0080 0080 0080 0080 0000 0000 0000 0000 0000 0000 0000 0000 0000 0000 0000 0000
1,212,0:08.617.014,2.054.800 ms,21 B,,   MOSI,01 42 00 00 00 00 00 00 00 00 00 00 00 00 00 00 00 00 00 00 00
1,213,0:08.617.014,2.054.800 ms,21 B,,   MISO,FF 79 5A FF FF 80 80 80 80 00 00 00 00 00 00 00 00 00 00 00 00
0,214,0:08.634.025,2.053.800 ms,21 B,,Transaction,01FF 4279 005A 00FF 00FF 0080 0080 0080 0080 0000 0000 0000 0000 0000 0000 0000 0000 0000 0000 0000 0000
1,215,0:08.634.025,2.053.800 ms,21 B,,   MOSI,01 42 00 00 00 00 00 00 00 00 00 00 00 00 00 00 00 00 00 00 00
1,216,0:08.634.025,2.053.800 ms,21 B,,   MISO,FF 79 5A FF FF 80 80 80 80 00 00 00 00 00 00 00 00 00 00 00 00
0,217,0:08.651.027,2.054.800 ms,21 B,,Transaction,01FF 4279 005A 00FF 00FF 0080 0080 0080 0080 0000 0000 0000 0000 0000 0000 0000 0000 0000 0000 0000 0000
1,218,0:08.651.027,2.054.800 ms,21 B,,   MOSI,01 42 00 00 00 00 00 00 00 00 00 00 00 00 00 00 00 00 00 00 00
1,219,0:08.651.027,2.054.800 ms,21 B,,   MISO,FF 79 5A FF FF 80 80 80 80 00 00 00 00 00 00 00 00 00 00 00 00
0,220,0:08.668.038,2.053.900 ms,21 B,,Transaction,01FF 4279 005A 00FF 00FF 0080 0080 0080 0080 0000 0000 0000 0000 0000 0000 0000 0000 0000 0000 0000 0000
1,221,0:08.668.038,2.053.900 ms,21 B,,   MOSI,01 42 00 00 00 00 00 00 00 00 00 00 00 00 00 00 00 00 00 00 00
1,222,0:08.668.038,2.053.900 ms,21 B,,   MISO,FF 79 5A FF FF 80 80 80 80 00 00 00 00 00 00 00 00 00 00 00 00
0,223,0:08.685.041,2.053.100 ms,21 B,,Transaction,01FF 4279 005A 00FF 00FF 0080 0080 0080 0080 0000 0000 0000 0000 0000 0000 0000 0000 0000 0000 0000 0000
1,224,0:08.685.041,2.053.100 ms,21 B,,   MOSI,01 42 00 00 00 00 00 00 00 00 00 00 00 00 00 00 00 00 00 00 00
1,225,0:08.685.041,2.053.100 ms,21 B,,   MISO,FF 79 5A FF FF 80 80 80 80 00 00 00 00 00 00 00 00 00 00 00 00
0,226,0:08.702.050,2.053.900 ms,21 B,,Transaction,01FF 4279 005A 00FF 00FF 0080 0080 0080 0080 0000 0000 0000 0000 0000 0000 0000 0000 0000 0000 0000 0000
1,227,0:08.702.050,2.053.900 ms,21 B,,   MOSI,01 42 00 00 00 00 00 00 00 00 00 00 00 00 00 00 00 00 00 00 00
1,228,0:08.702.050,2.053.900 ms,21 B,,   MISO,FF 79 5A FF FF 80 80 80 80 00 00 00 00 00 00 00 00 00 00 00 00
0,229,0:08.719.052,2.054.700 ms,21 B,,Transaction,01FF 4279 005A 00FF 00FF 0080 0080 0080 0080 0000 0000 0000 0000 0000 0000 0000 0000 0000 0000 0000 0000
1,230,0:08.719.052,2.054.700 ms,21 B,,   MOSI,01 42 00 00 00 00 00 00 00 00 00 00 00 00 00 00 00 00 00 00 00
