# Total Phase Data Center(tm) v5.00
# (c) 2005-2010 Total Phase, Inc.
# www.totalphase.com
#
# 
#
# Level,Index,m:s.ms.us,Dur,Len,Err,Record,Data
0,0,0:00.000.000,,,,Capture started,[12/13/10 22:53:38]
0,1,0:00.000.102,314.470.400 ms,0 B,TM,Transaction,
1,2,0:00.000.102,314.470.400 ms,0 B,TM,   MOSI,
1,3,0:00.000.102,314.470.400 ms,0 B,TM,   MISO,
0,4,0:02.637.256,634.300 us,0 B,,Transaction,
1,5,0:02.637.256,634.300 us,0 B,,   MOSI,
1,6,0:02.637.256,634.300 us,0 B,,   MISO,
0,7,0:02.637.891,351.300 us,0 B,,Transaction,
1,8,0:02.637.891,351.300 us,0 B,,   MOSI,
1,9,0:02.637.891,351.300 us,0 B,,   MISO,
0,10,0:02.638.242,645.900 us,0 B,,Transaction,
1,11,0:02.638.242,645.900 us,0 B,,   MOSI,
1,12,0:02.638.242,645.900 us,0 B,,   MISO,
0,13,0:02.638.888,694.100 us,0 B,,Transaction,
1,14,0:02.638.888,694.100 us,0 B,,   MOSI,
1,15,0:02.638.888,694.100 us,0 B,,   MISO,
0,16,0:02.639.582,154.700 us,0 B,,Transaction,
1,17,0:02.639.582,154.700 us,0 B,,   MOSI,
1,18,0:02.639.582,154.700 us,0 B,,   MISO,
0,19,0:02.639.737,86.900 us,0 B,,Transaction,
1,20,0:02.639.737,86.900 us,0 B,,   MOSI,
1,21,0:02.639.737,86.900 us,0 B,,   MISO,
0,22,0:02.639.824,102.700 us,0 B,,Transaction,
1,23,0:02.639.824,102.700 us,0 B,,   MOSI,
1,24,0:02.639.824,102.700 us,0 B,,   MISO,
0,25,0:02.639.927,617.700 us,0 B,,Transaction,
1,26,0:02.639.927,617.700 us,0 B,,   MOSI,
1,27,0:02.639.927,617.700 us,0 B,,   MISO,
0,28,0:02.640.545,17.500 us,0 B,,Transaction,
1,29,0:02.640.545,17.500 us,0 B,,   MOSI,
1,30,0:02.640.545,17.500 us,0 B,,   MISO,
0,31,0:02.640.562,29.100 us,0 B,,Transaction,
1,32,0:02.640.562,29.100 us,0 B,,   MOSI,
1,33,0:02.640.562,29.100 us,0 B,,   MISO,
0,34,0:02.640.591,68.300 us,0 B,,Transaction,
1,35,0:02.640.591,68.300 us,0 B,,   MOSI,
1,36,0:02.640.591,68.300 us,0 B,,   MISO,
0,37,0:02.640.660,375.500 us,0 B,,Transaction,
1,38,0:02.640.660,375.500 us,0 B,,   MOSI,
1,39,0:02.640.660,375.500 us,0 B,,   MISO,
0,40,0:02.641.035,429.800 us,0 B,,Transaction,
1,41,0:02.641.035,429.800 us,0 B,,   MOSI,
1,42,0:02.641.035,429.800 us,0 B,,   MISO,
0,43,0:02.641.465,160.500 us,0 B,,Transaction,
1,44,0:02.641.465,160.500 us,0 B,,   MOSI,
1,45,0:02.641.465,160.500 us,0 B,,   MISO,
0,46,0:02.641.626,268.700 us,0 B,,Transaction,
1,47,0:02.641.626,268.700 us,0 B,,   MOSI,
1,48,0:02.641.626,268.700 us,0 B,,   MISO,
0,49,0:02.641.895,115.400 us,0 B,,Transaction,
1,50,0:02.641.895,115.400 us,0 B,,   MOSI,
1,51,0:02.641.895,115.400 us,0 B,,   MISO,
0,52,0:02.642.010,124.600 us,0 B,,Transaction,
1,53,0:02.642.010,124.600 us,0 B,,   MOSI,
1,54,0:02.642.010,124.600 us,0 B,,   MISO,
0,55,0:02.642.135,8.300 us,0 B,,Transaction,
1,56,0:02.642.135,8.300 us,0 B,,   MOSI,
1,57,0:02.642.135,8.300 us,0 B,,   MISO,
0,58,0:02.642.143,320.900 us,0 B,,Transaction,
1,59,0:02.642.143,320.900 us,0 B,,   MOSI,
1,60,0:02.642.143,320.900 us,0 B,,   MISO,
0,61,0:02.642.464,31.700 us,0 B,,Transaction,
1,62,0:02.642.464,31.700 us,0 B,,   MOSI,
1,63,0:02.642.464,31.700 us,0 B,,   MISO,
0,64,0:02.642.496,31.100 us,0 B,,Transaction,
1,65,0:02.642.496,31.100 us,0 B,,   MOSI,
1,66,0:02.642.496,31.100 us,0 B,,   MISO,
0,67,0:02.642.527,21.100 us,0 B,,Transaction,
1,68,0:02.642.527,21.100 us,0 B,,   MOSI,
1,69,0:02.642.527,21.100 us,0 B,,   MISO,
0,70,0:02.642.548,3.500 us,0 B,,Transaction,
1,71,0:02.642.548,3.500 us,0 B,,   MOSI,
1,72,0:02.642.548,3.500 us,0 B,,   MISO,
0,73,0:02.642.552,36.500 us,0 B,,Transaction,
1,74,0:02.642.552,36.500 us,0 B,,   MOSI,
1,75,0:02.642.552,36.500 us,0 B,,   MISO,
0,76,0:02.642.589,24.900 us,0 B,,Transaction,
1,77,0:02.642.589,24.900 us,0 B,,   MOSI,
1,78,0:02.642.589,24.900 us,0 B,,   MISO,
0,79,0:02.642.614,79.800 us,0 B,,Transaction,
1,80,0:02.642.614,79.800 us,0 B,,   MOSI,
1,81,0:02.642.614,79.800 us,0 B,,   MISO,
0,82,0:02.642.694,49.300 us,0 B,,Transaction,
1,83,0:02.642.694,49.300 us,0 B,,   MOSI,
1,84,0:02.642.694,49.300 us,0 B,,   MISO,
0,85,0:02.642.743,63.300 us,0 B,,Transaction,
1,86,0:02.642.743,63.300 us,0 B,,   MOSI,
1,87,0:02.642.743,63.300 us,0 B,,   MISO,
0,88,0:02.642.806,2.500 us,0 B,,Transaction,
1,89,0:02.642.806,2.500 us,0 B,,   MOSI,
1,90,0:02.642.806,2.500 us,0 B,,   MISO,
0,91,0:02.642.809,23.600 us,0 B,,Transaction,
1,92,0:02.642.809,23.600 us,0 B,,   MOSI,
1,93,0:02.642.809,23.600 us,0 B,,   MISO,
0,94,0:02.642.833,2.300 us,0 B,,Transaction,
1,95,0:02.642.833,2.300 us,0 B,,   MOSI,
1,96,0:02.642.833,2.300 us,0 B,,   MISO,
0,97,0:02.642.835,900 ns,0 B,,Transaction,
1,98,0:02.642.835,900 ns,0 B,,   MOSI,
1,99,0:02.642.835,900 ns,0 B,,   MISO,
0,100,0:02.642.836,24.300 us,0 B,,Transaction,
1,101,0:02.642.836,24.300 us,0 B,,   MOSI,
1,102,0:02.642.836,24.300 us,0 B,,   MISO,
0,103,0:02.642.860,127.900 us,0 B,,Transaction,
1,104,0:02.642.860,127.900 us,0 B,,   MOSI,
1,105,0:02.642.860,127.900 us,0 B,,   MISO,
0,106,0:02.642.988,15.500 us,0 B,,Transaction,
1,107,0:02.642.988,15.500 us,0 B,,   MOSI,
1,108,0:02.642.988,15.500 us,0 B,,   MISO,
0,109,0:02.643.004,300 ns,0 B,,Transaction,
1,110,0:02.643.004,300 ns,0 B,,   MOSI,
1,111,0:02.643.004,300 ns,0 B,,   MISO,
0,112,0:02.643.005,400 ns,0 B,,Transaction,
1,113,0:02.643.005,400 ns,0 B,,   MOSI,
1,114,0:02.643.005,400 ns,0 B,,   MISO,
0,115,0:02.643.005,300 ns,0 B,,Transaction,
1,116,0:02.643.005,300 ns,0 B,,   MOSI,
1,117,0:02.643.005,300 ns,0 B,,   MISO,
0,118,0:02.643.006,200 ns,0 B,,Transaction,
1,119,0:02.643.006,200 ns,0 B,,   MOSI,
1,120,0:02.643.006,200 ns,0 B,,   MISO,
0,121,0:02.643.006,200 ns,0 B,,Transaction,
1,122,0:02.643.006,200 ns,0 B,,   MOSI,
1,123,0:02.643.006,200 ns,0 B,,   MISO,
0,124,0:02.643.007,900 ns,0 B,,Transaction,
1,125,0:02.643.007,900 ns,0 B,,   MOSI,
1,126,0:02.643.007,900 ns,0 B,,   MISO,
0,127,0:02.643.008,400 ns,0 B,,Transaction,
1,128,0:02.643.008,400 ns,0 B,,   MOSI,
1,129,0:02.643.008,400 ns,0 B,,   MISO,
0,130,0:02.643.008,3.700 us,0 B,,Transaction,
1,131,0:02.643.008,3.700 us,0 B,,   MOSI,
1,132,0:02.643.008,3.700 us,0 B,,   MISO,
0,133,0:02.643.012,300 ns,0 B,,Transaction,
1,134,0:02.643.012,300 ns,0 B,,   MOSI,
1,135,0:02.643.012,300 ns,0 B,,   MISO,
0,136,0:02.643.013,400 ns,0 B,,Transaction,
1,137,0:02.643.013,400 ns,0 B,,   MOSI,
1,138,0:02.643.013,400 ns,0 B,,   MISO,
0,139,0:02.643.014,100 ns,0 B,,Transaction,
1,140,0:02.643.014,100 ns,0 B,,   MOSI,
1,141,0:02.643.014,100 ns,0 B,,   MISO,
0,142,0:02.643.014,500 ns,0 B,,Transaction,
1,143,0:02.643.014,500 ns,0 B,,   MOSI,
1,144,0:02.643.014,500 ns,0 B,,   MISO,
0,145,0:02.643.015,200 ns,0 B,,Transaction,
1,146,0:02.643.015,200 ns,0 B,,   MOSI,
1,147,0:02.643.015,200 ns,0 B,,   MISO,
0,148,0:02.643.015,8.800 us,0 B,,Transaction,
1,149,0:02.643.015,8.800 us,0 B,,   MOSI,
1,150,0:02.643.015,8.800 us,0 B,,   MISO,
0,151,0:02.643.024,1.300 us,0 B,,Transaction,
1,152,0:02.643.024,1.300 us,0 B,,   MOSI,
1,153,0:02.643.024,1.300 us,0 B,,   MISO,
0,154,0:02.643.026,200 ns,0 B,,Transaction,
1,155,0:02.643.026,200 ns,0 B,,   MOSI,
1,156,0:02.643.026,200 ns,0 B,,   MISO,
0,157,0:02.643.026,1.500 us,0 B,,Transaction,
1,158,0:02.643.026,1.500 us,0 B,,   MOSI,
1,159,0:02.643.026,1.500 us,0 B,,   MISO,
0,160,0:02.643.028,200 ns,0 B,,Transaction,
1,161,0:02.643.028,200 ns,0 B,,   MOSI,
1,162,0:02.643.028,200 ns,0 B,,   MISO,
0,163,0:02.643.029,500 ns,0 B,,Transaction,
1,164,0:02.643.029,500 ns,0 B,,   MOSI,
1,165,0:02.643.029,500 ns,0 B,,   MISO,
0,166,0:02.643.029,900 ns,0 B,,Transaction,
1,167,0:02.643.029,900 ns,0 B,,   MOSI,
1,168,0:02.643.029,900 ns,0 B,,   MISO,
0,169,0:02.643.030,400 ns,0 B,,Transaction,
1,170,0:02.643.030,400 ns,0 B,,   MOSI,
1,171,0:02.643.030,400 ns,0 B,,   MISO,
0,172,0:02.643.031,200 ns,0 B,,Transaction,
1,173,0:02.643.031,200 ns,0 B,,   MOSI,
1,174,0:02.643.031,200 ns,0 B,,   MISO,
0,175,0:02.643.031,2.800 us,0 B,,Transaction,
1,176,0:02.643.031,2.800 us,0 B,,   MOSI,
1,177,0:02.643.031,2.800 us,0 B,,   MISO,
0,178,0:02.643.035,9.800 us,0 B,,Transaction,
1,179,0:02.643.035,9.800 us,0 B,,   MOSI,
1,180,0:02.643.035,9.800 us,0 B,,   MISO,
0,181,0:02.643.045,200 ns,0 B,,Transaction,
1,182,0:02.643.045,200 ns,0 B,,   MOSI,
1,183,0:02.643.045,200 ns,0 B,,   MISO,
0,184,0:02.643.045,200 ns,0 B,,Transaction,
1,185,0:02.643.045,200 ns,0 B,,   MOSI,
1,186,0:02.643.045,200 ns,0 B,,   MISO,
0,187,0:02.643.045,700 ns,0 B,,Transaction,
1,188,0:02.643.045,700 ns,0 B,,   MOSI,
1,189,0:02.643.045,700 ns,0 B,,   MISO,
0,190,0:02.643.046,1.100 us,0 B,,Transaction,
1,191,0:02.643.046,1.100 us,0 B,,   MOSI,
1,192,0:02.643.046,1.100 us,0 B,,   MISO,
0,193,0:02.643.048,600 ns,0 B,,Transaction,
1,194,0:02.643.048,600 ns,0 B,,   MOSI,
1,195,0:02.643.048,600 ns,0 B,,   MISO,
0,196,0:02.643.048,100 ns,0 B,,Transaction,
1,197,0:02.643.048,100 ns,0 B,,   MOSI,
1,198,0:02.643.048,100 ns,0 B,,   MISO,
0,199,0:02.643.049,500 ns,0 B,,Transaction,
1,200,0:02.643.049,500 ns,0 B,,   MOSI,
1,201,0:02.643.049,500 ns,0 B,,   MISO,
0,202,0:02.643.049,300 ns,0 B,,Transaction,
1,203,0:02.643.049,300 ns,0 B,,   MOSI,
1,204,0:02.643.049,300 ns,0 B,,   MISO,
0,205,0:02.643.050,100 ns,0 B,,Transaction,
1,206,0:02.643.050,100 ns,0 B,,   MOSI,
1,207,0:02.643.050,100 ns,0 B,,   MISO,
0,208,0:02.643.050,100 ns,0 B,,Transaction,
1,209,0:02.643.050,100 ns,0 B,,   MOSI,
1,210,0:02.643.050,100 ns,0 B,,   MISO,
0,211,0:02.643.051,200 ns,0 B,,Transaction,
1,212,0:02.643.051,200 ns,0 B,,   MOSI,
1,213,0:02.643.051,200 ns,0 B,,   MISO,
0,214,0:02.643.051,500 ns,0 B,,Transaction,
1,215,0:02.643.051,500 ns,0 B,,   MOSI,
1,216,0:02.643.051,500 ns,0 B,,   MISO,
0,217,0:02.643.052,300 ns,0 B,,Transaction,
1,218,0:02.643.052,300 ns,0 B,,   MOSI,
1,219,0:02.643.052,300 ns,0 B,,   MISO,
0,220,0:02.643.052,100 ns,0 B,,Transaction,
1,221,0:02.643.052,100 ns,0 B,,   MOSI,
1,222,0:02.643.052,100 ns,0 B,,   MISO,
0,223,0:02.643.053,200 ns,0 B,,Transaction,
1,224,0:02.643.053,200 ns,0 B,,   MOSI,
1,225,0:02.643.053,200 ns,0 B,,   MISO,
0,226,0:02.643.053,600 ns,0 B,,Transaction,
1,227,0:02.643.053,600 ns,0 B,,   MOSI,
1,228,0:02.643.053,600 ns,0 B,,   MISO,
0,229,0:02.643.054,200 ns,0 B,,Transaction,
1,230,0:02.643.054,200 ns,0 B,,   MOSI,
1,231,0:02.643.054,200 ns,0 B,,   MISO,
0,232,0:02.643.054,200 ns,0 B,,Transaction,
1,233,0:02.643.054,200 ns,0 B,,   MOSI,
1,234,0:02.643.054,200 ns,0 B,,   MISO,
0,235,0:02.643.055,200 ns,0 B,,Transaction,
1,236,0:02.643.055,200 ns,0 B,,   MOSI,
1,237,0:02.643.055,200 ns,0 B,,   MISO,
0,238,0:02.643.055,200 ns,0 B,,Transaction,
1,239,0:02.643.055,200 ns,0 B,,   MOSI,
1,240,0:02.643.055,200 ns,0 B,,   MISO,
0,241,0:02.643.055,300 ns,0 B,,Transaction,
1,242,0:02.643.055,300 ns,0 B,,   MOSI,
1,243,0:02.643.055,300 ns,0 B,,   MISO,
0,244,0:02.643.056,2.700 us,0 B,,Transaction,
1,245,0:02.643.056,2.700 us,0 B,,   MOSI,
1,246,0:02.643.056,2.700 us,0 B,,   MISO,
0,247,0:02.643.059,1.300 us,0 B,,Transaction,
1,248,0:02.643.059,1.300 us,0 B,,   MOSI,
1,249,0:02.643.059,1.300 us,0 B,,   MISO,
0,250,0:02.643.060,200 ns,0 B,,Transaction,
1,251,0:02.643.060,200 ns,0 B,,   MOSI,
1,252,0:02.643.060,200 ns,0 B,,   MISO,
0,253,0:02.643.061,200 ns,0 B,,Transaction,
1,254,0:02.643.061,200 ns,0 B,,   MOSI,
1,255,0:02.643.061,200 ns,0 B,,   MISO,
0,256,0:02.643.062,200 ns,0 B,,Transaction,
1,257,0:02.643.062,200 ns,0 B,,   MOSI,
1,258,0:02.643.062,200 ns,0 B,,   MISO,
0,259,0:02.643.062,100 ns,0 B,,Transaction,
1,260,0:02.643.062,100 ns,0 B,,   MOSI,
1,261,0:02.643.062,100 ns,0 B,,   MISO,
0,262,0:02.643.063,100 ns,0 B,,Transaction,
1,263,0:02.643.063,100 ns,0 B,,   MOSI,
1,264,0:02.643.063,100 ns,0 B,,   MISO,
0,265,0:02.643.063,100 ns,0 B,,Transaction,
1,266,0:02.643.063,100 ns,0 B,,   MOSI,
1,267,0:02.643.063,100 ns,0 B,,   MISO,
0,268,0:02.643.064,300 ns,0 B,,Transaction,
1,269,0:02.643.064,300 ns,0 B,,   MOSI,
1,270,0:02.643.064,300 ns,0 B,,   MISO,
0,271,0:02.643.065,100 ns,0 B,,Transaction,
1,272,0:02.643.065,100 ns,0 B,,   MOSI,
1,273,0:02.643.065,100 ns,0 B,,   MISO,
0,274,0:02.643.065,300 ns,0 B,,Transaction,
1,275,0:02.643.065,300 ns,0 B,,   MOSI,
1,276,0:02.643.065,300 ns,0 B,,   MISO,
0,277,0:02.643.065,200 ns,0 B,,Transaction,
1,278,0:02.643.065,200 ns,0 B,,   MOSI,
1,279,0:02.643.065,200 ns,0 B,,   MISO,
0,280,0:02.643.066,300 ns,0 B,,Transaction,
1,281,0:02.643.066,300 ns,0 B,,   MOSI,
1,282,0:02.643.066,300 ns,0 B,,   MISO,
0,283,0:02.643.066,300 ns,0 B,,Transaction,
1,284,0:02.643.066,300 ns,0 B,,   MOSI,
1,285,0:02.643.066,300 ns,0 B,,   MISO,
0,286,0:02.643.067,300 ns,0 B,,Transaction,
1,287,0:02.643.067,300 ns,0 B,,   MOSI,
1,288,0:02.643.067,300 ns,0 B,,   MISO,
0,289,0:02.643.068,200 ns,0 B,,Transaction,
1,290,0:02.643.068,200 ns,0 B,,   MOSI,
1,291,0:02.643.068,200 ns,0 B,,   MISO,
0,292,0:02.643.068,400 ns,0 B,,Transaction,
1,293,0:02.643.068,400 ns,0 B,,   MOSI,
1,294,0:02.643.068,400 ns,0 B,,   MISO,
0,295,0:02.643.069,400 ns,0 B,,Transaction,
1,296,0:02.643.069,400 ns,0 B,,   MOSI,
1,297,0:02.643.069,400 ns,0 B,,   MISO,
0,298,0:02.643.071,100 ns,0 B,,Transaction,
1,299,0:02.643.071,100 ns,0 B,,   MOSI,
1,300,0:02.643.071,100 ns,0 B,,   MISO,
0,301,0:02.643.071,700 ns,0 B,,Transaction,
1,302,0:02.643.071,700 ns,0 B,,   MOSI,
1,303,0:02.643.071,700 ns,0 B,,   MISO,
0,304,0:02.643.072,300 ns,0 B,,Transaction,
1,305,0:02.643.072,300 ns,0 B,,   MOSI,
1,306,0:02.643.072,300 ns,0 B,,   MISO,
0,307,0:02.643.072,500 ns,0 B,,Transaction,
1,308,0:02.643.072,500 ns,0 B,,   MOSI,
1,309,0:02.643.072,500 ns,0 B,,   MISO,
0,310,0:02.643.073,200 ns,0 B,,Transaction,
1,311,0:02.643.073,200 ns,0 B,,   MOSI,
1,312,0:02.643.073,200 ns,0 B,,   MISO,
0,313,0:02.643.073,200 ns,0 B,,Transaction,
1,314,0:02.643.073,200 ns,0 B,,   MOSI,
1,315,0:02.643.073,200 ns,0 B,,   MISO,
0,316,0:02.643.074,100 ns,0 B,,Transaction,
1,317,0:02.643.074,100 ns,0 B,,   MOSI,
1,318,0:02.643.074,100 ns,0 B,,   MISO,
0,319,0:02.643.075,100 ns,0 B,,Transaction,
1,320,0:02.643.075,100 ns,0 B,,   MOSI,
1,321,0:02.643.075,100 ns,0 B,,   MISO,
0,322,0:02.643.075,200 ns,0 B,,Transaction,
1,323,0:02.643.075,200 ns,0 B,,   MOSI,
1,324,0:02.643.075,200 ns,0 B,,   MISO,
0,325,0:02.643.076,300 ns,0 B,,Transaction,
1,326,0:02.643.076,300 ns,0 B,,   MOSI,
1,327,0:02.643.076,300 ns,0 B,,   MISO,
0,328,0:02.643.077,200 ns,0 B,,Transaction,
1,329,0:02.643.077,200 ns,0 B,,   MOSI,
1,330,0:02.643.077,200 ns,0 B,,   MISO,
0,331,0:02.643.078,200 ns,0 B,,Transaction,
1,332,0:02.643.078,200 ns,0 B,,   MOSI,
1,333,0:02.643.078,200 ns,0 B,,   MISO,
0,334,0:02.643.079,100 ns,0 B,,Transaction,
1,335,0:02.643.079,100 ns,0 B,,   MOSI,
1,336,0:02.643.079,100 ns,0 B,,   MISO,
0,337,0:02.643.079,100 ns,0 B,,Transaction,
1,338,0:02.643.079,100 ns,0 B,,   MOSI,
1,339,0:02.643.079,100 ns,0 B,,   MISO,
0,340,0:02.643.079,200 ns,0 B,,Transaction,
1,341,0:02.643.079,200 ns,0 B,,   MOSI,
1,342,0:02.643.079,200 ns,0 B,,   MISO,
0,343,0:02.643.080,200 ns,0 B,,Transaction,
1,344,0:02.643.080,200 ns,0 B,,   MOSI,
1,345,0:02.643.080,200 ns,0 B,,   MISO,
0,346,0:02.643.081,100 ns,0 B,,Transaction,
1,347,0:02.643.081,100 ns,0 B,,   MOSI,
1,348,0:02.643.081,100 ns,0 B,,   MISO,
0,349,0:02.643.081,200 ns,0 B,,Transaction,
1,350,0:02.643.081,200 ns,0 B,,   MOSI,
1,351,0:02.643.081,200 ns,0 B,,   MISO,
0,352,0:02.643.082,100 ns,0 B,,Transaction,
1,353,0:02.643.082,100 ns,0 B,,   MOSI,
1,354,0:02.643.082,100 ns,0 B,,   MISO,
0,355,0:02.643.082,300 ns,0 B,,Transaction,
1,356,0:02.643.082,300 ns,0 B,,   MOSI,
1,357,0:02.643.082,300 ns,0 B,,   MISO,
0,358,0:02.643.083,100 ns,0 B,,Transaction,
1,359,0:02.643.083,100 ns,0 B,,   MOSI,
1,360,0:02.643.083,100 ns,0 B,,   MISO,
0,361,0:02.643.084,200 ns,0 B,,Transaction,
1,362,0:02.643.084,200 ns,0 B,,   MOSI,
1,363,0:02.643.084,200 ns,0 B,,   MISO,
0,364,0:02.643.084,200 ns,0 B,,Transaction,
1,365,0:02.643.084,200 ns,0 B,,   MOSI,
1,366,0:02.643.084,200 ns,0 B,,   MISO,
0,367,0:02.643.085,300 ns,0 B,,Transaction,
1,368,0:02.643.085,300 ns,0 B,,   MOSI,
1,369,0:02.643.085,300 ns,0 B,,   MISO,
0,370,0:02.643.086,100 ns,0 B,,Transaction,
1,371,0:02.643.086,100 ns,0 B,,   MOSI,
1,372,0:02.643.086,100 ns,0 B,,   MISO,
0,373,0:02.643.087,100 ns,0 B,,Transaction,
1,374,0:02.643.087,100 ns,0 B,,   MOSI,
1,375,0:02.643.087,100 ns,0 B,,   MISO,
0,376,0:02.643.087,200 ns,0 B,,Transaction,
1,377,0:02.643.087,200 ns,0 B,,   MOSI,
1,378,0:02.643.087,200 ns,0 B,,   MISO,
0,379,0:02.643.088,100 ns,0 B,,Transaction,
1,380,0:02.643.088,100 ns,0 B,,   MOSI,
1,381,0:02.643.088,100 ns,0 B,,   MISO,
0,382,0:02.643.088,100 ns,0 B,,Transaction,
1,383,0:02.643.088,100 ns,0 B,,   MOSI,
1,384,0:02.643.088,100 ns,0 B,,   MISO,
0,385,0:02.643.090,200 ns,0 B,,Transaction,
1,386,0:02.643.090,200 ns,0 B,,   MOSI,
1,387,0:02.643.090,200 ns,0 B,,   MISO,
0,388,0:02.643.090,100 ns,0 B,,Transaction,
1,389,0:02.643.090,100 ns,0 B,,   MOSI,
1,390,0:02.643.090,100 ns,0 B,,   MISO,
0,391,0:02.643.091,100 ns,0 B,,Transaction,
1,392,0:02.643.091,100 ns,0 B,,   MOSI,
1,393,0:02.643.091,100 ns,0 B,,   MISO,
0,394,0:02.643.091,200 ns,0 B,,Transaction,
1,395,0:02.643.091,200 ns,0 B,,   MOSI,
1,396,0:02.643.091,200 ns,0 B,,   MISO,
0,397,0:02.643.092,100 ns,0 B,,Transaction,
1,398,0:02.643.092,100 ns,0 B,,   MOSI,
1,399,0:02.643.092,100 ns,0 B,,   MISO,
0,400,0:02.643.094,200 ns,0 B,,Transaction,
1,401,0:02.643.094,200 ns,0 B,,   MOSI,
1,402,0:02.643.094,200 ns,0 B,,   MISO,
0,403,0:02.643.099,100 ns,0 B,,Transaction,
1,404,0:02.643.099,100 ns,0 B,,   MOSI,
1,405,0:02.643.099,100 ns,0 B,,   MISO,
0,406,0:02.643.100,200 ns,0 B,,Transaction,
1,407,0:02.643.100,200 ns,0 B,,   MOSI,
1,408,0:02.643.100,200 ns,0 B,,   MISO,
0,409,0:02.643.100,100 ns,0 B,,Transaction,
1,410,0:02.643.100,100 ns,0 B,,   MOSI,
1,411,0:02.643.100,100 ns,0 B,,   MISO,
0,412,0:02.643.101,100 ns,0 B,,Transaction,
1,413,0:02.643.101,100 ns,0 B,,   MOSI,
1,414,0:02.643.101,100 ns,0 B,,   MISO,
0,415,0:02.643.102,200 ns,0 B,,Transaction,
1,416,0:02.643.102,200 ns,0 B,,   MOSI,
1,417,0:02.643.102,200 ns,0 B,,   MISO,
0,418,0:02.643.103,100 ns,0 B,,Transaction,
1,419,0:02.643.103,100 ns,0 B,,   MOSI,
1,420,0:02.643.103,100 ns,0 B,,   MISO,
0,421,0:02.643.104,100 ns,0 B,,Transaction,
1,422,0:02.643.104,100 ns,0 B,,   MOSI,
1,423,0:02.643.104,100 ns,0 B,,   MISO,
0,424,0:02.643.104,100 ns,0 B,,Transaction,
1,425,0:02.643.104,100 ns,0 B,,   MOSI,
1,426,0:02.643.104,100 ns,0 B,,   MISO,
0,427,0:02.643.105,200 ns,0 B,,Transaction,
1,428,0:02.643.105,200 ns,0 B,,   MOSI,
1,429,0:02.643.105,200 ns,0 B,,   MISO,
0,430,0:02.643.106,300 ns,0 B,,Transaction,
1,431,0:02.643.106,300 ns,0 B,,   MOSI,
1,432,0:02.643.106,300 ns,0 B,,   MISO,
0,433,0:02.643.107,200 ns,0 B,,Transaction,
1,434,0:02.643.107,200 ns,0 B,,   MOSI,
1,435,0:02.643.107,200 ns,0 B,,   MISO,
0,436,0:02.643.108,100 ns,0 B,,Transaction,
1,437,0:02.643.108,100 ns,0 B,,   MOSI,
1,438,0:02.643.108,100 ns,0 B,,   MISO,
0,439,0:02.643.109,400 ns,0 B,,Transaction,
1,440,0:02.643.109,400 ns,0 B,,   MOSI,
1,441,0:02.643.109,400 ns,0 B,,   MISO,
0,442,0:02.643.110,100 ns,0 B,,Transaction,
1,443,0:02.643.110,100 ns,0 B,,   MOSI,
1,444,0:02.643.110,100 ns,0 B,,   MISO,
0,445,0:02.643.111,100 ns,0 B,,Transaction,
1,446,0:02.643.111,100 ns,0 B,,   MOSI,
1,447,0:02.643.111,100 ns,0 B,,   MISO,
0,448,0:02.643.111,100 ns,0 B,,Transaction,
1,449,0:02.643.111,100 ns,0 B,,   MOSI,
1,450,0:02.643.111,100 ns,0 B,,   MISO,
0,451,0:02.643.112,300 ns,0 B,,Transaction,
1,452,0:02.643.112,300 ns,0 B,,   MOSI,
1,453,0:02.643.112,300 ns,0 B,,   MISO,
0,454,0:02.643.112,200 ns,0 B,,Transaction,
1,455,0:02.643.112,200 ns,0 B,,   MOSI,
1,456,0:02.643.112,200 ns,0 B,,   MISO,
0,457,0:02.643.113,200 ns,0 B,,Transaction,
1,458,0:02.643.113,200 ns,0 B,,   MOSI,
1,459,0:02.643.113,200 ns,0 B,,   MISO,
0,460,0:02.643.113,400 ns,0 B,,Transaction,
1,461,0:02.643.113,400 ns,0 B,,   MOSI,
1,462,0:02.643.113,400 ns,0 B,,   MISO,
0,463,0:02.643.114,300 ns,0 B,,Transaction,
1,464,0:02.643.114,300 ns,0 B,,   MOSI,
1,465,0:02.643.114,300 ns,0 B,,   MISO,
0,466,0:02.643.114,300 ns,0 B,,Transaction,
1,467,0:02.643.114,300 ns,0 B,,   MOSI,
1,468,0:02.643.114,300 ns,0 B,,   MISO,
0,469,0:02.643.115,100 ns,0 B,,Transaction,
1,470,0:02.643.115,100 ns,0 B,,   MOSI,
1,471,0:02.643.115,100 ns,0 B,,   MISO,
0,472,0:02.643.116,300 ns,0 B,,Transaction,
1,473,0:02.643.116,300 ns,0 B,,   MOSI,
1,474,0:02.643.116,300 ns,0 B,,   MISO,
0,475,0:02.643.118,400 ns,0 B,,Transaction,
1,476,0:02.643.118,400 ns,0 B,,   MOSI,
1,477,0:02.643.118,400 ns,0 B,,   MISO,
0,478,0:02.643.118,1.200 us,0 B,,Transaction,
1,479,0:02.643.118,1.200 us,0 B,,   MOSI,
1,480,0:02.643.118,1.200 us,0 B,,   MISO,
0,481,0:02.643.120,200 ns,0 B,,Transaction,
1,482,0:02.643.120,200 ns,0 B,,   MOSI,
1,483,0:02.643.120,200 ns,0 B,,   MISO,
0,484,0:02.643.120,200 ns,0 B,,Transaction,
1,485,0:02.643.120,200 ns,0 B,,   MOSI,
1,486,0:02.643.120,200 ns,0 B,,   MISO,
0,487,0:02.643.120,200 ns,0 B,,Transaction,
1,488,0:02.643.120,200 ns,0 B,,   MOSI,
1,489,0:02.643.120,200 ns,0 B,,   MISO,
0,490,0:02.643.121,100 ns,0 B,,Transaction,
1,491,0:02.643.121,100 ns,0 B,,   MOSI,
1,492,0:02.643.121,100 ns,0 B,,   MISO,
0,493,0:02.643.121,200 ns,0 B,,Transaction,
1,494,0:02.643.121,200 ns,0 B,,   MOSI,
1,495,0:02.643.121,200 ns,0 B,,   MISO,
0,496,0:02.643.122,100 ns,0 B,,Transaction,
1,497,0:02.643.122,100 ns,0 B,,   MOSI,
1,498,0:02.643.122,100 ns,0 B,,   MISO,
0,499,0:02.643.122,200 ns,0 B,,Transaction,
1,500,0:02.643.122,200 ns,0 B,,   MOSI,
1,501,0:02.643.122,200 ns,0 B,,   MISO,
0,502,0:02.643.122,100 ns,0 B,,Transaction,
1,503,0:02.643.122,100 ns,0 B,,   MOSI,
1,504,0:02.643.122,100 ns,0 B,,   MISO,
0,505,0:02.643.125,200 ns,0 B,,Transaction,
1,506,0:02.643.125,200 ns,0 B,,   MOSI,
1,507,0:02.643.125,200 ns,0 B,,   MISO,
0,508,0:02.643.127,200 ns,0 B,,Transaction,
1,509,0:02.643.127,200 ns,0 B,,   MOSI,
1,510,0:02.643.127,200 ns,0 B,,   MISO,
0,511,0:02.643.130,100 ns,0 B,,Transaction,
1,512,0:02.643.130,100 ns,0 B,,   MOSI,
1,513,0:02.643.130,100 ns,0 B,,   MISO,
0,514,0:02.643.132,100 ns,0 B,,Transaction,
1,515,0:02.643.132,100 ns,0 B,,   MOSI,
1,516,0:02.643.132,100 ns,0 B,,   MISO,
0,517,0:02.643.132,200 ns,0 B,,Transaction,
1,518,0:02.643.132,200 ns,0 B,,   MOSI,
1,519,0:02.643.132,200 ns,0 B,,   MISO,
0,520,0:02.643.136,100 ns,0 B,,Transaction,
1,521,0:02.643.136,100 ns,0 B,,   MOSI,
1,522,0:02.643.136,100 ns,0 B,,   MISO,
0,523,0:02.643.141,100 ns,0 B,,Transaction,
1,524,0:02.643.141,100 ns,0 B,,   MOSI,
1,525,0:02.643.141,100 ns,0 B,,   MISO,
0,526,0:02.643.145,100 ns,0 B,,Transaction,
1,527,0:02.643.145,100 ns,0 B,,   MOSI,
1,528,0:02.643.145,100 ns,0 B,,   MISO,
0,529,0:02.643.149,100 ns,0 B,,Transaction,
1,530,0:02.643.149,100 ns,0 B,,   MOSI,
1,531,0:02.643.149,100 ns,0 B,,   MISO,
0,532,0:02.643.150,100 ns,0 B,,Transaction,
1,533,0:02.643.150,100 ns,0 B,,   MOSI,
1,534,0:02.643.150,100 ns,0 B,,   MISO,
0,535,0:02.643.153,100 ns,0 B,,Transaction,
1,536,0:02.643.153,100 ns,0 B,,   MOSI,
1,537,0:02.643.153,100 ns,0 B,,   MISO,
0,538,0:02.643.158,100 ns,0 B,,Transaction,
1,539,0:02.643.158,100 ns,0 B,,   MOSI,
1,540,0:02.643.158,100 ns,0 B,,   MISO,
0,541,0:02.643.167,100 ns,0 B,,Transaction,
1,542,0:02.643.167,100 ns,0 B,,   MOSI,
1,543,0:02.643.167,100 ns,0 B,,   MISO,
0,544,0:02.643.169,100 ns,0 B,,Transaction,
1,545,0:02.643.169,100 ns,0 B,,   MOSI,
1,546,0:02.643.169,100 ns,0 B,,   MISO,
0,547,0:02.643.180,200 ns,0 B,,Transaction,
1,548,0:02.643.180,200 ns,0 B,,   MOSI,
1,549,0:02.643.180,200 ns,0 B,,   MISO,
0,550,0:02.643.237,100 ns,0 B,,Transaction,
1,551,0:02.643.237,100 ns,0 B,,   MOSI,
1,552,0:02.643.237,100 ns,0 B,,   MISO,
0,553,0:03.177.920,255.700 us,5 B,,Transaction,01FF 4241 005A 00FF 00FF
1,554,0:03.177.920,255.700 us,5 B,,   MOSI,01 42 00 00 00
1,555,0:03.177.920,255.700 us,5 B,,   MISO,FF 41 5A FF FF
0,556,0:03.193.613,275.600 us,5 B,,Transaction,01FF 4341 005A 01FF 00FF
1,557,0:03.193.613,275.600 us,5 B,,   MOSI,01 43 00 01 00
1,558,0:03.193.613,275.600 us,5 B,,   MISO,FF 41 5A FF FF
0,559,0:03.210.268,490.300 us,9 B,,Transaction,01FF 45F3 005A 0003 0002 0000 0002 0001 0000
1,560,0:03.210.268,490.300 us,9 B,,   MOSI,01 45 00 00 00 00 00 00 00
1,561,0:03.210.268,490.300 us,9 B,,   MISO,FF F3 5A 03 02 00 02 01 00
0,562,0:03.243.638,489.300 us,9 B,,Transaction,01FF 46F3 005A 0000 0000 0001 0002 0000 000F
1,563,0:03.243.638,489.300 us,9 B,,   MOSI,01 46 00 00 00 00 00 00 00
1,564,0:03.243.638,489.300 us,9 B,,   MISO,FF F3 5A 00 00 01 02 00 0F
0,565,0:03.260.324,490.600 us,9 B,,Transaction,01FF 46F3 005A 0100 0000 0001 0001 0001 000F
1,566,0:03.260.324,490.600 us,9 B,,   MOSI,01 46 00 01 00 00 00 00 00
1,567,0:03.260.324,490.600 us,9 B,,   MISO,FF F3 5A 00 00 01 01 01 0F
0,568,0:03.277.015,489.800 us,9 B,,Transaction,01FF 47F3 005A 0000 0000 0002 0000 0001 0000
1,569,0:03.277.015,489.800 us,9 B,,   MOSI,01 47 00 00 00 00 00 00 00
1,570,0:03.277.015,489.800 us,9 B,,   MISO,FF F3 5A 00 00 02 00 01 00
0,571,0:03.293.694,490.500 us,9 B,,Transaction,01FF 4CF3 005A 0000 0000 0000 0004 0000 0000
1,572,0:03.293.694,490.500 us,9 B,,   MOSI,01 4C 00 00 00 00 00 00 00
1,573,0:03.293.694,490.500 us,9 B,,   MISO,FF F3 5A 00 00 00 04 00 00
0,574,0:03.310.382,490.600 us,9 B,,Transaction,01FF 4CF3 005A 0100 0000 0000 0007 0000 0000
1,575,0:03.310.382,490.600 us,9 B,,   MOSI,01 4C 00 01 00 00 00 00 00
1,576,0:03.310.382,490.600 us,9 B,,   MISO,FF F3 5A 00 00 00 07 00 00
0,577,0:03.327.072,491.000 us,9 B,,Transaction,01FF 44F3 005A 0100 0300 0000 0000 0000 0000
1,578,0:03.327.072,491.000 us,9 B,,   MOSI,01 44 00 01 03 00 00 00 00
1,579,0:03.327.072,491.000 us,9 B,,   MISO,FF F3 5A 00 00 00 00 00 00
0,580,0:03.343.753,489.700 us,9 B,,Transaction,01FF 4DF3 005A 00FF 01FF FFFF FFFF FFFF FFFF
1,581,0:03.343.753,489.700 us,9 B,,   MOSI,01 4D 00 00 01 FF FF FF FF
1,582,0:03.343.753,489.700 us,9 B,,   MISO,FF F3 5A FF FF FF FF FF FF
0,583,0:03.360.432,490.400 us,9 B,,Transaction,01FF 43F3 005A 0000 0000 0000 0000 0000 0000
1,584,0:03.360.432,490.400 us,9 B,,   MOSI,01 43 00 00 00 00 00 00 00
1,585,0:03.360.432,490.400 us,9 B,,   MISO,FF F3 5A 00 00 00 00 00 00
0,586,0:03.377.116,276.000 us,5 B,,Transaction,01FF 4273 005A 00FF 00FF
1,587,0:03.377.116,276.000 us,5 B,,   MOSI,01 42 00 00 00
1,588,0:03.377.116,276.000 us,5 B,,   MISO,FF 73 5A FF FF
0,589,0:03.394.098,308.600 us,9 B,,Transaction,01FF 4273 005A 00FF 00FF 0080 0080 0080 0080
1,590,0:03.394.098,308.600 us,9 B,,   MOSI,01 42 00 00 00 00 00 00 00
1,591,0:03.394.098,308.600 us,9 B,,   MISO,FF 73 5A FF FF 80 80 80 80
0,592,0:03.410.860,308.400 us,9 B,,Transaction,01FF 4273 005A 00FF 00FF 0080 0080 0080 0080
1,593,0:03.410.860,308.400 us,9 B,,   MOSI,01 42 00 00 00 00 00 00 00
1,594,0:03.410.860,308.400 us,9 B,,   MISO,FF 73 5A FF FF 80 80 80 80
0,595,0:03.427.829,308.800 us,9 B,,Transaction,01FF 4273 005A 00FF 00FF 0080 0080 0080 0080
1,596,0:03.427.829,308.800 us,9 B,,   MOSI,01 42 00 00 00 00 00 00 00
1,597,0:03.427.829,308.800 us,9 B,,   MISO,FF 73 5A FF FF 80 80 80 80
0,598,0:03.444.531,309.700 us,9 B,,Transaction,01FF 4273 005A 00FF 00FF 0080 0080 0080 0080
1,599,0:03.444.531,309.700 us,9 B,,   MOSI,01 42 00 00 00 00 00 00 00
1,600,0:03.444.531,309.700 us,9 B,,   MISO,FF 73 5A FF FF 80 80 80 80
0,601,0:03.460.768,309.300 us,9 B,,Transaction,01FF 4273 005A 00FF 00FF 0080 0080 0080 0080
1,602,0:03.460.768,309.300 us,9 B,,   MOSI,01 42 00 00 00 00 00 00 00
1,603,0:03.460.768,309.300 us,9 B,,   MISO,FF 73 5A FF FF 80 80 80 80
0,604,0:03.477.422,309.800 us,9 B,,Transaction,01FF 4273 005A 00FF 00FF 0080 0080 0080 0080
1,605,0:03.477.422,309.800 us,9 B,,   MOSI,01 42 00 00 00 00 00 00 00
1,606,0:03.477.422,309.800 us,9 B,,   MISO,FF 73 5A FF FF 80 80 80 80
0,607,0:03.494.105,309.000 us,9 B,,Transaction,01FF 4273 005A 00FF 00FF 0080 0080 0080 0080
1,608,0:03.494.105,309.000 us,9 B,,   MOSI,01 42 00 00 00 00 00 00 00
1,609,0:03.494.105,309.000 us,9 B,,   MISO,FF 73 5A FF FF 80 80 80 80
0,610,0:03.510.794,309.700 us,9 B,,Transaction,01FF 4273 005A 00FF 00FF 0080 0080 0080 0080
1,611,0:03.510.794,309.700 us,9 B,,   MOSI,01 42 00 00 00 00 00 00 00
1,612,0:03.510.794,309.700 us,9 B,,   MISO,FF 73 5A FF FF 80 80 80 80
0,613,0:03.527.473,309.100 us,9 B,,Transaction,01FF 4273 005A 00FF 00FF 0080 0080 0080 0080
1,614,0:03.527.473,309.100 us,9 B,,   MOSI,01 42 00 00 00 00 00 00 00
1,615,0:03.527.473,309.100 us,9 B,,   MISO,FF 73 5A FF FF 80 80 80 80
0,616,0:03.544.158,309.100 us,9 B,,Transaction,01FF 4273 005A 00FF 00FF 0080 0080 0080 0080
1,617,0:03.544.158,309.100 us,9 B,,   MOSI,01 42 00 00 00 00 00 00 00
1,618,0:03.544.158,309.100 us,9 B,,   MISO,FF 73 5A FF FF 80 80 80 80
0,619,0:03.560.852,309.500 us,9 B,,Transaction,01FF 4273 005A 00FF 00FF 0080 0080 0080 0080
1,620,0:03.560.852,309.500 us,9 B,,   MOSI,01 42 00 00 00 00 00 00 00
1,621,0:03.560.852,309.500 us,9 B,,   MISO,FF 73 5A FF FF 80 80 80 80
0,622,0:03.577.532,309.000 us,9 B,,Transaction,01FF 4273 005A 00FF 00FF 0080 0080 0080 0080
1,623,0:03.577.532,309.000 us,9 B,,   MOSI,01 42 00 00 00 00 00 00 00
1,624,0:03.577.532,309.000 us,9 B,,   MISO,FF 73 5A FF FF 80 80 80 80
0,625,0:03.594.217,308.500 us,9 B,,Transaction,01FF 4273 005A 00FF 00FF 0080 0080 0080 0080
1,626,0:03.594.217,308.500 us,9 B,,   MOSI,01 42 00 00 00 00 00 00 00
1,627,0:03.594.217,308.500 us,9 B,,   MISO,FF 73 5A FF FF 80 80 80 80
0,628,0:03.610.912,308.300 us,9 B,,Transaction,01FF 4273 005A 00FF 00FF 0080 0080 0080 0080
1,629,0:03.610.912,308.300 us,9 B,,   MOSI,01 42 00 00 00 00 00 00 00
1,630,0:03.610.912,308.300 us,9 B,,   MISO,FF 73 5A FF FF 80 80 80 80
0,631,0:03.627.580,308.900 us,9 B,,Transaction,01FF 4273 005A 00FF 00FF 0080 0080 0080 0080
1,632,0:03.627.580,308.900 us,9 B,,   MOSI,01 42 00 00 00 00 00 00 00
1,633,0:03.627.580,308.900 us,9 B,,   MISO,FF 73 5A FF FF 80 80 80 80
0,634,0:03.644.272,309.500 us,9 B,,Transaction,01FF 4273 005A 00FF 00FF 0080 0080 0080 0080
1,635,0:03.644.272,309.500 us,9 B,,   MOSI,01 42 00 00 00 00 00 00 00
1,636,0:03.644.272,309.500 us,9 B,,   MISO,FF 73 5A FF FF 80 80 80 80
0,637,0:03.660.958,309.000 us,9 B,,Transaction,01FF 4273 005A 00FF 00FF 0080 0080 0080 0080
1,638,0:03.660.958,309.000 us,9 B,,   MOSI,01 42 00 00 00 00 00 00 00
1,639,0:03.660.958,309.000 us,9 B,,   MISO,FF 73 5A FF FF 80 80 80 80
0,640,0:03.677.640,308.600 us,9 B,,Transaction,01FF 4273 005A 00FF 00FF 0080 0080 0080 0080
1,641,0:03.677.640,308.600 us,9 B,,   MOSI,01 42 00 00 00 00 00 00 00
1,642,0:03.677.640,308.600 us,9 B,,   MISO,FF 73 5A FF FF 80 80 80 80
0,643,0:03.694.334,310.200 us,9 B,,Transaction,01FF 4273 005A 00FF 00FF 0080 0080 0080 0080
1,644,0:03.694.334,310.200 us,9 B,,   MOSI,01 42 00 00 00 00 00 00 00
1,645,0:03.694.334,310.200 us,9 B,,   MISO,FF 73 5A FF FF 80 80 80 80
0,646,0:03.711.013,308.400 us,9 B,,Transaction,01FF 4273 005A 00FF 00FF 0080 0080 0080 0080
1,647,0:03.711.013,308.400 us,9 B,,   MOSI,01 42 00 00 00 00 00 00 00
1,648,0:03.711.013,308.400 us,9 B,,   MISO,FF 73 5A FF FF 80 80 80 80
0,649,0:03.727.689,308.500 us,9 B,,Transaction,01FF 4273 005A 00FF 00FF 0080 0080 0080 0080
1,650,0:03.727.689,308.500 us,9 B,,   MOSI,01 42 00 00 00 00 00 00 00
1,651,0:03.727.689,308.500 us,9 B,,   MISO,FF 73 5A FF FF 80 80 80 80
0,652,0:03.744.380,308.700 us,9 B,,Transaction,01FF 4273 005A 00FF 00FF 0080 0080 0080 0080
1,653,0:03.744.380,308.700 us,9 B,,   MOSI,01 42 00 00 00 00 00 00 00
1,654,0:03.744.380,308.700 us,9 B,,   MISO,FF 73 5A FF FF 80 80 80 80
0,655,0:03.761.070,308.700 us,9 B,,Transaction,01FF 4273 005A 00FF 00FF 0080 0080 0080 0080
1,656,0:03.761.070,308.700 us,9 B,,   MOSI,01 42 00 00 00 00 00 00 00
1,657,0:03.761.070,308.700 us,9 B,,   MISO,FF 73 5A FF FF 80 80 80 80
0,658,0:03.777.758,309.400 us,9 B,,Transaction,01FF 4273 005A 00FF 00FF 0080 0080 0080 0080
1,659,0:03.777.758,309.400 us,9 B,,   MOSI,01 42 00 00 00 00 00 00 00
1,660,0:03.777.758,309.400 us,9 B,,   MISO,FF 73 5A FF FF 80 80 80 80
0,661,0:03.794.439,310.300 us,9 B,,Transaction,01FF 4273 005A 00FF 00FF 0080 0080 0080 0080
1,662,0:03.794.439,310.300 us,9 B,,   MOSI,01 42 00 00 00 00 00 00 00
1,663,0:03.794.439,310.300 us,9 B,,   MISO,FF 73 5A FF FF 80 80 80 80
0,664,0:03.811.128,309.800 us,9 B,,Transaction,01FF 4273 005A 00FF 00FF 0080 0080 0080 0080
1,665,0:03.811.128,309.800 us,9 B,,   MOSI,01 42 00 00 00 00 00 00 00
1,666,0:03.811.128,309.800 us,9 B,,   MISO,FF 73 5A FF FF 80 80 80 80
0,667,0:03.827.792,309.900 us,9 B,,Transaction,01FF 4273 005A 00FF 00FF 0080 0080 0080 0080
1,668,0:03.827.792,309.900 us,9 B,,   MOSI,01 42 00 00 00 00 00 00 00
1,669,0:03.827.792,309.900 us,9 B,,   MISO,FF 73 5A FF FF 80 80 80 80
0,670,0:03.844.499,309.000 us,9 B,,Transaction,01FF 4273 005A 00FF 00FF 0080 0080 0080 0080
1,671,0:03.844.499,309.000 us,9 B,,   MOSI,01 42 00 00 00 00 00 00 00
1,672,0:03.844.499,309.000 us,9 B,,   MISO,FF 73 5A FF FF 80 80 80 80
0,673,0:03.861.181,309.300 us,9 B,,Transaction,01FF 4273 005A 00FF 00FF 0080 0080 0080 0080
1,674,0:03.861.181,309.300 us,9 B,,   MOSI,01 42 00 00 00 00 00 00 00
1,675,0:03.861.181,309.300 us,9 B,,   MISO,FF 73 5A FF FF 80 80 80 80
0,676,0:03.877.857,308.700 us,9 B,,Transaction,01FF 4273 005A 00FF 00FF 0080 0080 0080 0080
1,677,0:03.877.857,308.700 us,9 B,,   MOSI,01 42 00 00 00 00 00 00 00
1,678,0:03.877.857,308.700 us,9 B,,   MISO,FF 73 5A FF FF 80 80 80 80
0,679,0:03.894.548,309.600 us,9 B,,Transaction,01FF 4273 005A 00FF 00FF 0080 0080 0080 0080
1,680,0:03.894.548,309.600 us,9 B,,   MOSI,01 42 00 00 00 00 00 00 00
1,681,0:03.894.548,309.600 us,9 B,,   MISO,FF 73 5A FF FF 80 80 80 80
0,682,0:03.911.235,308.500 us,9 B,,Transaction,01FF 4273 005A 00FF 00FF 0080 0080 0080 0080
1,683,0:03.911.235,308.500 us,9 B,,   MOSI,01 42 00 00 00 00 00 00 00
1,684,0:03.911.235,308.500 us,9 B,,   MISO,FF 73 5A FF FF 80 80 80 80
0,685,0:03.927.924,309.300 us,9 B,,Transaction,01FF 4273 005A 00FF 00FF 0080 0080 0080 0080
1,686,0:03.927.924,309.300 us,9 B,,   MOSI,01 42 00 00 00 00 00 00 00
1,687,0:03.927.924,309.300 us,9 B,,   MISO,FF 73 5A FF FF 80 80 80 80
0,688,0:03.944.617,309.600 us,9 B,,Transaction,01FF 4273 005A 00FF 00FF 0080 0080 0080 0080
1,689,0:03.944.617,309.600 us,9 B,,   MOSI,01 42 00 00 00 00 00 00 00
1,690,0:03.944.617,309.600 us,9 B,,   MISO,FF 73 5A FF FF 80 80 80 80
0,691,0:03.961.291,309.900 us,9 B,,Transaction,01FF 4273 005A 00FF 00FF 0080 0080 0080 0080
1,692,0:03.961.291,309.900 us,9 B,,   MOSI,01 42 00 00 00 00 00 00 00
1,693,0:03.961.291,309.900 us,9 B,,   MISO,FF 73 5A FF FF 80 80 80 80
0,694,0:03.977.973,310.200 us,9 B,,Transaction,01FF 4273 005A 00FF 00FF 0080 0080 0080 0080
1,695,0:03.977.973,310.200 us,9 B,,   MOSI,01 42 00 00 00 00 00 00 00
1,696,0:03.977.973,310.200 us,9 B,,   MISO,FF 73 5A FF FF 80 80 80 80
0,697,0:03.994.656,308.400 us,9 B,,Transaction,01FF 4273 005A 00FF 00FF 0080 0080 0080 0080
1,698,0:03.994.656,308.400 us,9 B,,   MOSI,01 42 00 00 00 00 00 00 00
1,699,0:03.994.656,308.400 us,9 B,,   MISO,FF 73 5A FF FF 80 80 80 80
0,700,0:04.011.348,309.500 us,9 B,,Transaction,01FF 4273 005A 00FF 00FF 0080 0080 0080 0080
1,701,0:04.011.348,309.500 us,9 B,,   MOSI,01 42 00 00 00 00 00 00 00
1,702,0:04.011.348,309.500 us,9 B,,   MISO,FF 73 5A FF FF 80 80 80 80
0,703,0:04.028.027,309.300 us,9 B,,Transaction,01FF 4273 005A 00FF 00FF 0080 0080 0080 0080
1,704,0:04.028.027,309.300 us,9 B,,   MOSI,01 42 00 00 00 00 00 00 00
1,705,0:04.028.027,309.300 us,9 B,,   MISO,FF 73 5A FF FF 80 80 80 80
0,706,0:04.044.713,309.800 us,9 B,,Transaction,01FF 4273 005A 00FF 00FF 0080 0080 0080 0080
1,707,0:04.044.713,309.800 us,9 B,,   MOSI,01 42 00 00 00 00 00 00 00
1,708,0:04.044.713,309.800 us,9 B,,   MISO,FF 73 5A FF FF 80 80 80 80
0,709,0:04.061.403,309.700 us,9 B,,Transaction,01FF 4273 005A 00FF 00FF 0080 0080 0080 0080
1,710,0:04.061.403,309.700 us,9 B,,   MOSI,01 42 00 00 00 00 00 00 00
1,711,0:04.061.403,309.700 us,9 B,,   MISO,FF 73 5A FF FF 80 80 80 80
0,712,0:04.078.547,310.300 us,9 B,,Transaction,01FF 4273 005A 00FF 00FF 0080 0080 0080 0080
1,713,0:04.078.547,310.300 us,9 B,,   MOSI,01 42 00 00 00 00 00 00 00
1,714,0:04.078.547,310.300 us,9 B,,   MISO,FF 73 5A FF FF 80 80 80 80
0,715,0:04.095.246,308.600 us,9 B,,Transaction,01FF 4273 005A 00FF 00FF 0080 0080 0080 0080
1,716,0:04.095.246,308.600 us,9 B,,   MOSI,01 42 00 00 00 00 00 00 00
1,717,0:04.095.246,308.600 us,9 B,,   MISO,FF 73 5A FF FF 80 80 80 80
0,718,0:04.111.488,308.400 us,9 B,,Transaction,01FF 4273 005A 00FF 00FF 0080 0080 0080 0080
1,719,0:04.111.488,308.400 us,9 B,,   MOSI,01 42 00 00 00 00 00 00 00
1,720,0:04.111.488,308.400 us,9 B,,   MISO,FF 73 5A FF FF 80 80 80 80
0,721,0:04.128.141,308.600 us,9 B,,Transaction,01FF 4273 005A 00FF 00FF 0080 0080 0080 0080
1,722,0:04.128.141,308.600 us,9 B,,   MOSI,01 42 00 00 00 00 00 00 00
1,723,0:04.128.141,308.600 us,9 B,,   MISO,FF 73 5A FF FF 80 80 80 80
0,724,0:04.144.825,309.200 us,9 B,,Transaction,01FF 4273 005A 00FF 00FF 0080 0080 0080 0080
1,725,0:04.144.825,309.200 us,9 B,,   MOSI,01 42 00 00 00 00 00 00 00
1,726,0:04.144.825,309.200 us,9 B,,   MISO,FF 73 5A FF FF 80 80 80 80
0,727,0:04.161.505,309.100 us,9 B,,Transaction,01FF 4273 005A 00FF 00FF 0080 0080 0080 0080
1,728,0:04.161.505,309.100 us,9 B,,   MOSI,01 42 00 00 00 00 00 00 00
1,729,0:04.161.505,309.100 us,9 B,,   MISO,FF 73 5A FF FF 80 80 80 80
0,730,0:04.178.194,310.100 us,9 B,,Transaction,01FF 4273 005A 00FF 00FF 0080 0080 0080 0080
1,731,0:04.178.194,310.100 us,9 B,,   MOSI,01 42 00 00 00 00 00 00 00
1,732,0:04.178.194,310.100 us,9 B,,   MISO,FF 73 5A FF FF 80 80 80 80
0,733,0:04.194.883,308.800 us,9 B,,Transaction,01FF 4273 005A 00FF 00FF 0080 0080 0080 0080
1,734,0:04.194.883,308.800 us,9 B,,   MOSI,01 42 00 00 00 00 00 00 00
1,735,0:04.194.883,308.800 us,9 B,,   MISO,FF 73 5A FF FF 80 80 80 80
0,736,0:04.211.571,309.800 us,9 B,,Transaction,01FF 4273 005A 00FF 00FF 0080 0080 0080 0080
1,737,0:04.211.571,309.800 us,9 B,,   MOSI,01 42 00 00 00 00 00 00 00
1,738,0:04.211.571,309.800 us,9 B,,   MISO,FF 73 5A FF FF 80 80 80 80
0,739,0:04.228.259,309.300 us,9 B,,Transaction,01FF 4273 005A 00FF 00FF 0080 0080 0080 0080
1,740,0:04.228.259,309.300 us,9 B,,   MOSI,01 42 00 00 00 00 00 00 00
1,741,0:04.228.259,309.300 us,9 B,,   MISO,FF 73 5A FF FF 80 80 80 80
0,742,0:04.244.941,309.600 us,9 B,,Transaction,01FF 4273 005A 00FF 00FF 0080 0080 0080 0080
1,743,0:04.244.941,309.600 us,9 B,,   MOSI,01 42 00 00 00 00 00 00 00
1,744,0:04.244.941,309.600 us,9 B,,   MISO,FF 73 5A FF FF 80 80 80 80
0,745,0:04.261.626,309.500 us,9 B,,Transaction,01FF 4273 005A 00FF 00FF 0080 0080 0080 0080
1,746,0:04.261.626,309.500 us,9 B,,   MOSI,01 42 00 00 00 00 00 00 00
1,747,0:04.261.626,309.500 us,9 B,,   MISO,FF 73 5A FF FF 80 80 80 80
0,748,0:04.278.318,308.700 us,9 B,,Transaction,01FF 4273 005A 00FF 00FF 0080 0080 0080 0080
1,749,0:04.278.318,308.700 us,9 B,,   MOSI,01 42 00 00 00 00 00 00 00
1,750,0:04.278.318,308.700 us,9 B,,   MISO,FF 73 5A FF FF 80 80 80 80
0,751,0:04.294.997,308.700 us,9 B,,Transaction,01FF 4273 005A 00FF 00FF 0080 0080 0080 0080
1,752,0:04.294.997,308.700 us,9 B,,   MOSI,01 42 00 00 00 00 00 00 00
1,753,0:04.294.997,308.700 us,9 B,,   MISO,FF 73 5A FF FF 80 80 80 80
0,754,0:04.311.682,310.000 us,9 B,,Transaction,01FF 4273 005A 00FF 00FF 0080 0080 0080 0080
1,755,0:04.311.682,310.000 us,9 B,,   MOSI,01 42 00 00 00 00 00 00 00
1,756,0:04.311.682,310.000 us,9 B,,   MISO,FF 73 5A FF FF 80 80 80 80
0,757,0:04.328.364,308.900 us,9 B,,Transaction,01FF 4273 005A 00FF 00FF 0080 0080 0080 0080
1,758,0:04.328.364,308.900 us,9 B,,   MOSI,01 42 00 00 00 00 00 00 00
1,759,0:04.328.364,308.900 us,9 B,,   MISO,FF 73 5A FF FF 80 80 80 80
0,760,0:04.345.050,309.200 us,9 B,,Transaction,01FF 4273 005A 00FF 00FF 0080 0080 0080 0080
1,761,0:04.345.050,309.200 us,9 B,,   MOSI,01 42 00 00 00 00 00 00 00
1,762,0:04.345.050,309.200 us,9 B,,   MISO,FF 73 5A FF FF 80 80 80 80
0,763,0:04.361.733,308.900 us,9 B,,Transaction,01FF 4273 005A 00FF 00FF 0080 0080 0080 0080
1,764,0:04.361.733,308.900 us,9 B,,   MOSI,01 42 00 00 00 00 00 00 00
1,765,0:04.361.733,308.900 us,9 B,,   MISO,FF 73 5A FF FF 80 80 80 80
0,766,0:04.378.425,309.900 us,9 B,,Transaction,01FF 4273 005A 00FF 00FF 0080 0080 0080 0080
1,767,0:04.378.425,309.900 us,9 B,,   MOSI,01 42 00 00 00 00 00 00 00
1,768,0:04.378.425,309.900 us,9 B,,   MISO,FF 73 5A FF FF 80 80 80 80
0,769,0:04.395.103,310.100 us,9 B,,Transaction,01FF 4273 005A 00FF 00FF 0080 0080 0080 0080
1,770,0:04.395.103,310.100 us,9 B,,   MOSI,01 42 00 00 00 00 00 00 00
1,771,0:04.395.103,310.100 us,9 B,,   MISO,FF 73 5A FF FF 80 80 80 80
0,772,0:04.411.793,310.300 us,9 B,,Transaction,01FF 4273 005A 00FF 00FF 0080 0080 0080 0080
1,773,0:04.411.793,310.300 us,9 B,,   MOSI,01 42 00 00 00 00 00 00 00
1,774,0:04.411.793,310.300 us,9 B,,   MISO,FF 73 5A FF FF 80 80 80 80
0,775,0:04.428.468,308.500 us,9 B,,Transaction,01FF 4273 005A 00FF 00FF 0080 0080 0080 0080
1,776,0:04.428.468,308.500 us,9 B,,   MOSI,01 42 00 00 00 00 00 00 00
1,777,0:04.428.468,308.500 us,9 B,,   MISO,FF 73 5A FF FF 80 80 80 80
0,778,0:04.445.174,309.500 us,9 B,,Transaction,01FF 4273 005A 00FF 00FF 0080 0080 0080 0080
1,779,0:04.445.174,309.500 us,9 B,,   MOSI,01 42 00 00 00 00 00 00 00
1,780,0:04.445.174,309.500 us,9 B,,   MISO,FF 73 5A FF FF 80 80 80 80
0,781,0:04.461.849,309.400 us,9 B,,Transaction,01FF 4273 005A 00FF 00FF 0080 0080 0080 0080
1,782,0:04.461.849,309.400 us,9 B,,   MOSI,01 42 00 00 00 00 00 00 00
1,783,0:04.461.849,309.400 us,9 B,,   MISO,FF 73 5A FF FF 80 80 80 80
0,784,0:04.461.849,,,,Capture stopped,[12/13/10 22:53:43]
